! This file was normalized.
! Created Tue Apr 24 14:54:15 2018
! 2 Port Network Data from data block
! freq  reS11  imS11  reS21  imS21  reS12  imS12  reS22  imS22  
!     
# Hz S dB R 50
0	-2.966547E+001	0.000000E+000	-4.693228E-003	0.000000E+000	-4.693228E-003	0.000000E+000	-2.966547E+001	0.000000E+000
56000000	-1.443359E+001	-9.152152E+001	-9.619119E-003	-4.006152E+000	-9.619119E-003	-4.006152E+000	-1.443362E+001	-9.152282E+001
112000000	-1.142416E+001	-9.656718E+001	-1.917431E-002	-7.996093E+000	-1.917431E-002	-7.996093E+000	-1.142419E+001	-9.656961E+001
168000000	-9.680644E+000	-1.009017E+002	-3.421356E-002	-1.197142E+001	-3.421356E-002	-1.197142E+001	-9.680680E+000	-1.009052E+002
224000000	-8.460269E+000	-1.050270E+002	-5.461528E-002	-1.592189E+001	-5.461528E-002	-1.592189E+001	-8.460309E+000	-1.050317E+002
280000000	-7.530339E+000	-1.090433E+002	-8.006882E-002	-1.983879E+001	-8.006882E-002	-1.983879E+001	-7.530383E+000	-1.090491E+002
336000000	-6.787835E+000	-1.129781E+002	-1.101238E-001	-2.371233E+001	-1.101238E-001	-2.371233E+001	-6.787883E+000	-1.129849E+002
392000000	-6.176556E+000	-1.168421E+002	-1.442907E-001	-2.753697E+001	-1.442907E-001	-2.753697E+001	-6.176609E+000	-1.168500E+002
448000000	-5.663348E+000	-1.206373E+002	-1.819904E-001	-3.130632E+001	-1.819904E-001	-3.130632E+001	-5.663406E+000	-1.206463E+002
504000000	-5.226470E+000	-1.243635E+002	-2.226095E-001	-3.501576E+001	-2.226095E-001	-3.501576E+001	-5.226532E+000	-1.243735E+002
560000000	-4.850885E+000	-1.280202E+002	-2.655111E-001	-3.866196E+001	-2.655111E-001	-3.866196E+001	-4.850952E+000	-1.280312E+002
616000000	-4.525708E+000	-1.316069E+002	-3.100516E-001	-4.224285E+001	-3.100516E-001	-4.224285E+001	-4.525780E+000	-1.316190E+002
672000000	-4.242766E+000	-1.351238E+002	-3.555948E-001	-4.575748E+001	-3.555948E-001	-4.575748E+001	-4.242843E+000	-1.351369E+002
728000000	-3.995747E+000	-1.385717E+002	-4.015232E-001	-4.920600E+001	-4.015232E-001	-4.920600E+001	-3.995828E+000	-1.385858E+002
784000000	-3.779660E+000	-1.419522E+002	-4.472479E-001	-5.258951E+001	-4.472479E-001	-5.258951E+001	-3.779747E+000	-1.419673E+002
840000000	-3.590497E+000	-1.452675E+002	-4.922143E-001	-5.590994E+001	-4.922143E-001	-5.590994E+001	-3.590588E+000	-1.452835E+002
896000000	-3.424986E+000	-1.485204E+002	-5.359076E-001	-5.916995E+001	-5.359076E-001	-5.916995E+001	-3.425083E+000	-1.485375E+002
952000000	-3.280437E+000	-1.517143E+002	-5.778550E-001	-6.237277E+001	-5.778550E-001	-6.237277E+001	-3.280539E+000	-1.517324E+002
1008000000	-3.154618E+000	-1.548531E+002	-6.176269E-001	-6.552217E+001	-6.176269E-001	-6.552217E+001	-3.154726E+000	-1.548721E+002
1064000000	-3.045676E+000	-1.579408E+002	-6.548369E-001	-6.862230E+001	-6.548369E-001	-6.862230E+001	-3.045788E+000	-1.579608E+002
1120000000	-2.952065E+000	-1.609821E+002	-6.891409E-001	-7.167767E+001	-6.891409E-001	-7.167767E+001	-2.952183E+000	-1.610031E+002
1176000000	-2.872505E+000	-1.639816E+002	-7.202358E-001	-7.469302E+001	-7.202358E-001	-7.469302E+001	-2.872629E+000	-1.640036E+002
1232000000	-2.805943E+000	-1.669443E+002	-7.478570E-001	-7.767332E+001	-7.478570E-001	-7.767332E+001	-2.806073E+000	-1.669671E+002
1288000000	-2.751523E+000	-1.698751E+002	-7.717773E-001	-8.062370E+001	-7.717773E-001	-8.062370E+001	-2.751658E+000	-1.698989E+002
1344000000	-2.708563E+000	-1.727793E+002	-7.918047E-001	-8.354942E+001	-7.918047E-001	-8.354942E+001	-2.708704E+000	-1.728040E+002
1400000000	-2.676544E+000	-1.756620E+002	-8.077804E-001	-8.645586E+001	-8.077804E-001	-8.645586E+001	-2.676691E+000	-1.756877E+002
1456000000	-2.655094E+000	-1.785287E+002	-8.195778E-001	-8.934850E+001	-8.195778E-001	-8.934850E+001	-2.655247E+000	-1.785553E+002
1512000000	-2.643983E+000	1.786153E+002	-8.271010E-001	-9.223289E+001	-8.271010E-001	-9.223289E+001	-2.644141E+000	1.785879E+002
1568000000	-2.643115E+000	1.757645E+002	-8.302841E-001	-9.511468E+001	-8.302841E-001	-9.511468E+001	-2.643279E+000	1.757363E+002
1624000000	-2.652531E+000	1.729135E+002	-8.290915E-001	-9.799959E+001	-8.290915E-001	-9.799959E+001	-2.652701E+000	1.728846E+002
1680000000	-2.672412E+000	1.700569E+002	-8.235177E-001	-1.008934E+002	-8.235177E-001	-1.008934E+002	-2.672586E+000	1.700272E+002
1736000000	-2.703082E+000	1.671889E+002	-8.135884E-001	-1.038021E+002	-8.135884E-001	-1.038021E+002	-2.703260E+000	1.671587E+002
1792000000	-2.745021E+000	1.643042E+002	-7.993621E-001	-1.067315E+002	-7.993621E-001	-1.067315E+002	-2.745201E+000	1.642735E+002
1848000000	-2.798880E+000	1.613970E+002	-7.809324E-001	-1.096877E+002	-7.809324E-001	-1.096877E+002	-2.799057E+000	1.613661E+002
1904000000	-2.865500E+000	1.584618E+002	-7.584310E-001	-1.126770E+002	-7.584310E-001	-1.126770E+002	-2.865669E+000	1.584311E+002
1960000000	-2.945941E+000	1.554930E+002	-7.320321E-001	-1.157054E+002	-7.320321E-001	-1.157054E+002	-2.946087E+000	1.554629E+002
2016000000	-3.041512E+000	1.524850E+002	-7.019591E-001	-1.187794E+002	-7.019591E-001	-1.187794E+002	-3.041611E+000	1.524564E+002
2072000000	-3.153824E+000	1.494316E+002	-6.684958E-001	-1.219053E+002	-6.684958E-001	-1.219053E+002	-3.153821E+000	1.494062E+002
2128000000	-3.284858E+000	1.463262E+002	-6.320136E-001	-1.250897E+002	-6.320136E-001	-1.250897E+002	-3.284616E+000	1.463068E+002
2184000000	-3.437128E+000	1.431583E+002	-5.930642E-001	-1.283393E+002	-5.930642E-001	-1.283393E+002	-3.436213E+000	1.431510E+002
2240000000	-3.614790E+000	1.399033E+002	-5.528260E-001	-1.316581E+002	-5.528260E-001	-1.316581E+002	-3.611268E+000	1.399184E+002
2296000000	-3.831748E+000	1.366146E+002	-5.119483E-001	-1.349958E+002	-5.119483E-001	-1.349958E+002	-3.820049E+000	1.365606E+002
2352000000	-4.067890E+000	1.334703E+002	-4.623641E-001	-1.384433E+002	-4.623641E-001	-1.384433E+002	-4.063741E+000	1.333241E+002
2408000000	-4.339495E+000	1.301143E+002	-4.158063E-001	-1.420142E+002	-4.158063E-001	-1.420142E+002	-4.338463E+000	1.299870E+002
2464000000	-4.660031E+000	1.266921E+002	-3.702224E-001	-1.456632E+002	-3.702224E-001	-1.456632E+002	-4.659914E+000	1.265743E+002
2520000000	-5.037898E+000	1.232326E+002	-3.256567E-001	-1.493985E+002	-3.256567E-001	-1.493985E+002	-5.038214E+000	1.231167E+002
2576000000	-5.486480E+000	1.197570E+002	-2.828472E-001	-1.532235E+002	-2.828472E-001	-1.532235E+002	-5.487099E+000	1.196384E+002
2632000000	-6.025398E+000	1.163008E+002	-2.426707E-001	-1.571391E+002	-2.426707E-001	-1.571391E+002	-6.026309E+000	1.161754E+002
2688000000	-6.684303E+000	1.129283E+002	-2.060579E-001	-1.611436E+002	-2.060579E-001	-1.611436E+002	-6.685570E+000	1.127912E+002
2744000000	-7.511053E+000	1.097642E+002	-1.739586E-001	-1.652334E+002	-1.739586E-001	-1.652334E+002	-7.512842E+000	1.096086E+002
2800000000	-8.590826E+000	1.070830E+002	-1.473113E-001	-1.694028E+002	-1.473113E-001	-1.694028E+002	-8.593522E+000	1.068967E+002
2856000000	-1.009918E+001	1.056296E+002	-1.270113E-001	-1.736436E+002	-1.270113E-001	-1.736436E+002	-1.010388E+001	1.053863E+002
2912000000	-1.249571E+001	1.083789E+002	-1.138745E-001	-1.779456E+002	-1.138745E-001	-1.779456E+002	-1.250725E+001	1.080033E+002
2968000000	-1.722231E+001	1.443532E+002	-1.086022E-001	1.777034E+002	-1.086022E-001	1.777034E+002	-1.729782E+001	1.438501E+002
3024000000	-1.426350E+001	-1.216039E+002	-1.117467E-001	1.733173E+002	-1.117467E-001	1.733173E+002	-1.427470E+001	-1.211154E+002
3080000000	-1.095067E+001	-1.123408E+002	-1.236827E-001	1.689113E+002	-1.236827E-001	1.689113E+002	-1.095125E+001	-1.121274E+002
3136000000	-9.044932E+000	-1.126452E+002	-1.445865E-001	1.645015E+002	-1.445865E-001	1.645015E+002	-9.044353E+000	-1.125238E+002
3192000000	-7.727157E+000	-1.150843E+002	-1.744252E-001	1.601042E+002	-1.744252E-001	1.601042E+002	-7.726377E+000	-1.150073E+002
3248000000	-6.731068E+000	-1.183063E+002	-2.129582E-001	1.557355E+002	-2.129582E-001	1.557355E+002	-6.730274E+000	-1.182552E+002
3304000000	-5.939702E+000	-1.218765E+002	-2.597486E-001	1.514103E+002	-2.597486E-001	1.514103E+002	-5.938941E+000	-1.218425E+002
3360000000	-5.291320E+000	-1.256081E+002	-3.141862E-001	1.471424E+002	-3.141862E-001	1.471424E+002	-5.290601E+000	-1.255862E+002
3416000000	-4.749167E+000	-1.294048E+002	-3.755170E-001	1.429438E+002	-3.755170E-001	1.429438E+002	-4.748488E+000	-1.293919E+002
3472000000	-4.289416E+000	-1.332104E+002	-4.428775E-001	1.388245E+002	-4.428775E-001	1.388245E+002	-4.288774E+000	-1.332045E+002
3528000000	-3.895595E+000	-1.369900E+002	-5.153300E-001	1.347922E+002	-5.153300E-001	1.347922E+002	-3.894985E+000	-1.369898E+002
3584000000	-3.555740E+000	-1.407208E+002	-5.918976E-001	1.308526E+002	-5.918976E-001	1.308526E+002	-3.555158E+000	-1.407251E+002
3640000000	-3.260815E+000	-1.443878E+002	-6.715942E-001	1.270094E+002	-6.715942E-001	1.270094E+002	-3.260257E+000	-1.443959E+002
3696000000	-3.003784E+000	-1.479814E+002	-7.534514E-001	1.232643E+002	-7.534514E-001	1.232643E+002	-3.003246E+000	-1.479928E+002
3752000000	-2.779037E+000	-1.514961E+002	-8.365380E-001	1.196173E+002	-8.365380E-001	1.196173E+002	-2.778516E+000	-1.515102E+002
3808000000	-2.582017E+000	-1.549291E+002	-9.199754E-001	1.160670E+002	-9.199754E-001	1.160670E+002	-2.581511E+000	-1.549457E+002
3864000000	-2.408975E+000	-1.582802E+002	-1.002947E+000	1.126110E+002	-1.002947E+000	1.126110E+002	-2.408481E+000	-1.582989E+002
3920000000	-2.256787E+000	-1.615505E+002	-1.084704E+000	1.092454E+002	-1.084704E+000	1.092454E+002	-2.256302E+000	-1.615710E+002
3976000000	-2.122834E+000	-1.647426E+002	-1.164565E+000	1.059661E+002	-1.164565E+000	1.059661E+002	-2.122358E+000	-1.647647E+002
4032000000	-2.004907E+000	-1.678599E+002	-1.241920E+000	1.027681E+002	-1.241920E+000	1.027681E+002	-2.004437E+000	-1.678834E+002
4088000000	-1.901137E+000	-1.709066E+002	-1.316220E+000	9.964593E+001	-1.316220E+000	9.964593E+001	-1.900671E+000	-1.709314E+002
4144000000	-1.809934E+000	-1.738876E+002	-1.386979E+000	9.659406E+001	-1.386979E+000	9.659406E+001	-1.809472E+000	-1.739134E+002
4200000000	-1.729950E+000	-1.768077E+002	-1.453765E+000	9.360660E+001	-1.453765E+000	9.360660E+001	-1.729490E+000	-1.768345E+002
4256000000	-1.660041E+000	-1.796724E+002	-1.516197E+000	9.067758E+001	-1.516197E+000	9.067758E+001	-1.659581E+000	-1.796999E+002
4312000000	-1.599236E+000	1.775130E+002	-1.573937E+000	8.780096E+001	-1.573937E+000	8.780096E+001	-1.598775E+000	1.774848E+002
4368000000	-1.546719E+000	1.747429E+002	-1.626686E+000	8.497067E+001	-1.626686E+000	8.497067E+001	-1.546255E+000	1.747142E+002
4424000000	-1.501805E+000	1.720117E+002	-1.674177E+000	8.218064E+001	-1.674177E+000	8.218064E+001	-1.501337E+000	1.719826E+002
4480000000	-1.463930E+000	1.693136E+002	-1.716171E+000	7.942478E+001	-1.716171E+000	7.942478E+001	-1.463457E+000	1.692842E+002
4536000000	-1.432637E+000	1.666431E+002	-1.752454E+000	7.669695E+001	-1.752454E+000	7.669695E+001	-1.432158E+000	1.666135E+002
4592000000	-1.407573E+000	1.639942E+002	-1.782826E+000	7.399095E+001	-1.782826E+000	7.399095E+001	-1.407086E+000	1.639646E+002
4648000000	-1.388481E+000	1.613611E+002	-1.807100E+000	7.130037E+001	-1.807100E+000	7.130037E+001	-1.387985E+000	1.613316E+002
4704000000	-1.375218E+000	1.587376E+002	-1.825085E+000	6.861837E+001	-1.825085E+000	6.861837E+001	-1.374712E+000	1.587083E+002
4760000000	-1.367798E+000	1.561169E+002	-1.836565E+000	6.593687E+001	-1.836565E+000	6.593687E+001	-1.367281E+000	1.560879E+002
4816000000	-1.366601E+000	1.534910E+002	-1.841229E+000	6.324349E+001	-1.841229E+000	6.324349E+001	-1.366076E+000	1.534623E+002
4872000000	-1.373880E+000	1.508517E+002	-1.838765E+000	6.049934E+001	-1.838765E+000	6.049934E+001	-1.373373E+000	1.508231E+002
4928000000	-1.389217E+000	1.485039E+002	-1.855395E+000	5.770102E+001	-1.855395E+000	5.770102E+001	-1.388994E+000	1.484787E+002
4984000000	-1.387171E+000	1.457013E+002	-1.828745E+000	5.523192E+001	-1.828745E+000	5.523192E+001	-1.386614E+000	1.456779E+002
5040000000	-1.403159E+000	1.430572E+002	-1.810070E+000	5.256320E+001	-1.810070E+000	5.256320E+001	-1.402546E+000	1.430366E+002
5096000000	-1.431327E+000	1.403305E+002	-1.780969E+000	4.976869E+001	-1.780969E+000	4.976869E+001	-1.430685E+000	1.403114E+002
5152000000	-1.466678E+000	1.375656E+002	-1.745160E+000	4.693032E+001	-1.745160E+000	4.693032E+001	-1.466003E+000	1.375485E+002
5208000000	-1.509934E+000	1.347530E+002	-1.702499E+000	4.403904E+001	-1.702499E+000	4.403904E+001	-1.509222E+000	1.347381E+002
5264000000	-1.561983E+000	1.318839E+002	-1.652970E+000	4.108561E+001	-1.652970E+000	4.108561E+001	-1.561229E+000	1.318717E+002
5320000000	-1.623922E+000	1.289496E+002	-1.596623E+000	3.806040E+001	-1.596623E+000	3.806040E+001	-1.623120E+000	1.289404E+002
5376000000	-1.697071E+000	1.259405E+002	-1.533591E+000	3.495281E+001	-1.533591E+000	3.495281E+001	-1.696214E+000	1.259350E+002
5432000000	-1.783081E+000	1.228474E+002	-1.464054E+000	3.175193E+001	-1.464054E+000	3.175193E+001	-1.782160E+000	1.228461E+002
5488000000	-1.883976E+000	1.196602E+002	-1.388289E+000	2.844600E+001	-1.388289E+000	2.844600E+001	-1.882980E+000	1.196639E+002
5544000000	-2.002256E+000	1.163690E+002	-1.306676E+000	2.502256E+001	-1.306676E+000	2.502256E+001	-2.001172E+000	1.163785E+002
5600000000	-2.141032E+000	1.129636E+002	-1.219719E+000	2.146849E+001	-1.219719E+000	2.146849E+001	-2.139843E+000	1.129801E+002
5656000000	-2.304192E+000	1.094344E+002	-1.128081E+000	1.777017E+001	-1.128081E+000	1.777017E+001	-2.302877E+000	1.094592E+002
5712000000	-2.496645E+000	1.057731E+002	-1.032606E+000	1.391367E+001	-1.032606E+000	1.391367E+001	-2.495175E+000	1.058079E+002
5768000000	-2.724652E+000	1.019733E+002	-9.343544E-001	9.885152E+000	-9.343544E-001	9.885152E+000	-2.722990E+000	1.020202E+002
5824000000	-2.996321E+000	9.803249E+001	-8.346326E-001	5.671354E+000	-8.346326E-001	5.671354E+000	-2.994413E+000	9.809444E+001
5880000000	-3.322328E+000	9.395464E+001	-7.350278E-001	1.260386E+000	-7.350278E-001	1.260386E+000	-3.320099E+000	9.403553E+001
5936000000	-3.717114E+000	8.975459E+001	-6.374160E-001	-3.357353E+000	-6.374160E-001	-3.357353E+000	-3.714451E+000	8.985984E+001
5992000000	-4.200912E+000	8.546579E+001	-5.439602E-001	-8.188088E+000	-5.439602E-001	-8.188088E+000	-4.197633E+000	8.560337E+001
6048000000	-4.803352E+000	8.115604E+001	-4.570950E-001	-1.323312E+001	-4.570950E-001	-1.323312E+001	-4.799150E+000	8.133822E+001
6104000000	-5.570862E+000	7.696203E+001	-3.794518E-001	-1.848753E+001	-3.794518E-001	-1.848753E+001	-5.565153E+000	7.720918E+001
6160000000	-6.583294E+000	7.318235E+001	-3.137531E-001	-2.393884E+001	-3.137531E-001	-2.393884E+001	-6.574804E+000	7.353190E+001
6216000000	-7.998285E+000	7.059450E+001	-2.626570E-001	-2.956607E+001	-2.626570E-001	-2.956607E+001	-7.983520E+000	7.112611E+001
6272000000	-1.019998E+001	7.204566E+001	-2.285660E-001	-3.533947E+001	-2.285660E-001	-3.533947E+001	-1.016453E+001	7.296848E+001
6328000000	-1.424841E+001	9.900172E+001	-2.134180E-001	-4.122127E+001	-2.134180E-001	-4.122127E+001	-1.406429E+001	1.004386E+002
6384000000	-1.277444E+001	-1.705323E+002	-2.184942E-001	-4.716722E+001	-2.184942E-001	-4.716722E+001	-1.270014E+001	-1.725051E+002
6440000000	-9.363408E+000	-1.576038E+002	-2.442769E-001	-5.312951E+001	-2.442769E-001	-5.312951E+001	-9.352634E+000	-1.586791E+002
6496000000	-7.420781E+000	-1.581520E+002	-2.903900E-001	-5.905986E+001	-2.903900E-001	-5.905986E+001	-7.418458E+000	-1.588891E+002
6552000000	-6.112562E+000	-1.615003E+002	-3.556330E-001	-6.491291E+001	-3.556330E-001	-6.491291E+001	-6.112443E+000	-1.620757E+002
6608000000	-5.151446E+000	-1.657859E+002	-4.381023E-001	-7.064912E+001	-4.381023E-001	-7.064912E+001	-5.152095E+000	-1.662682E+002
6664000000	-4.410915E+000	-1.704226E+002	-5.353744E-001	-7.623676E+001	-5.353744E-001	-7.623676E+001	-4.411867E+000	-1.708449E+002
6720000000	-3.823741E+000	-1.751632E+002	-6.447101E-001	-8.165284E+001	-6.447101E-001	-8.165284E+001	-3.824817E+000	-1.755441E+002
6776000000	-3.349401E+000	-1.798855E+002	-7.632557E-001	-8.688314E+001	-7.632557E-001	-8.688314E+001	-3.350522E+000	1.797637E+002
6832000000	-2.961239E+000	1.754749E+002	-8.882069E-001	-9.192143E+001	-8.882069E-001	-9.192143E+001	-2.962369E+000	1.751469E+002
6888000000	-2.640601E+000	1.709518E+002	-1.016931E+000	-9.676819E+001	-1.016931E+000	-9.676819E+001	-2.641723E+000	1.706414E+002
6944000000	-2.373848E+000	1.665609E+002	-1.147041E+000	-1.014293E+002	-1.147041E+000	-1.014293E+002	-2.374956E+000	1.662643E+002
7000000000	-2.150700E+000	1.623065E+002	-1.276436E+000	-1.059145E+002	-1.276436E+000	-1.059145E+002	-2.151790E+000	1.620210E+002
7056000000	-1.963235E+000	1.581858E+002	-1.403300E+000	-1.102363E+002	-1.403300E+000	-1.102363E+002	-1.964308E+000	1.579092E+002
7112000000	-1.805256E+000	1.541915E+002	-1.526096E+000	-1.144090E+002	-1.526096E+000	-1.144090E+002	-1.806313E+000	1.539221E+002
7168000000	-1.671862E+000	1.503134E+002	-1.643535E+000	-1.184479E+002	-1.643535E+000	-1.184479E+002	-1.672905E+000	1.500498E+002
7224000000	-1.559149E+000	1.465397E+002	-1.754547E+000	-1.223684E+002	-1.754547E+000	-1.223684E+002	-1.560179E+000	1.462808E+002
7280000000	-1.463989E+000	1.428578E+002	-1.858247E+000	-1.261864E+002	-1.858247E+000	-1.261864E+002	-1.465010E+000	1.426026E+002
7336000000	-1.383870E+000	1.392544E+002	-1.953905E+000	-1.299171E+002	-1.953905E+000	-1.299171E+002	-1.384886E+000	1.390022E+002
7392000000	-1.316777E+000	1.357165E+002	-2.040917E+000	-1.335758E+002	-2.040917E+000	-1.335758E+002	-1.317788E+000	1.354664E+002
7448000000	-1.261091E+000	1.322308E+002	-2.118781E+000	-1.371770E+002	-2.118781E+000	-1.371770E+002	-1.262101E+000	1.319822E+002
7504000000	-1.215526E+000	1.287843E+002	-2.187075E+000	-1.407352E+002	-2.187075E+000	-1.407352E+002	-1.216538E+000	1.285367E+002
7560000000	-1.179069E+000	1.253641E+002	-2.245443E+000	-1.442643E+002	-2.245443E+000	-1.442643E+002	-1.180085E+000	1.251169E+002
7616000000	-1.150942E+000	1.219573E+002	-2.293580E+000	-1.477783E+002	-2.293580E+000	-1.477783E+002	-1.151965E+000	1.217100E+002
7672000000	-1.130572E+000	1.185511E+002	-2.331219E+000	-1.512907E+002	-2.331219E+000	-1.512907E+002	-1.131603E+000	1.183031E+002
7728000000	-1.117565E+000	1.151325E+002	-2.358129E+000	-1.548155E+002	-2.358129E+000	-1.548155E+002	-1.118607E+000	1.148834E+002
7784000000	-1.111696E+000	1.116883E+002	-2.374108E+000	-1.583665E+002	-2.374108E+000	-1.583665E+002	-1.112751E+000	1.114376E+002
7840000000	-1.112900E+000	1.082050E+002	-2.378981E+000	-1.619581E+002	-2.378981E+000	-1.619581E+002	-1.113968E+000	1.079522E+002
7896000000	-1.121272E+000	1.046685E+002	-2.372602E+000	-1.656049E+002	-2.372602E+000	-1.656049E+002	-1.122353E+000	1.044130E+002
7952000000	-1.137072E+000	1.010640E+002	-2.354862E+000	-1.693225E+002	-2.354862E+000	-1.693225E+002	-1.138163E+000	1.008053E+002
8008000000	-1.160743E+000	9.737592E+001	-2.325674E+000	-1.731270E+002	-2.325674E+000	-1.731270E+002	-1.161840E+000	9.711322E+001
8064000000	-1.192903E+000	9.358792E+001	-2.285049E+000	-1.770353E+002	-2.285049E+000	-1.770353E+002	-1.193995E+000	9.332053E+001
8120000000	-1.234421E+000	8.968231E+001	-2.233012E+000	1.789343E+002	-2.233012E+000	1.789343E+002	-1.235489E+000	8.940926E+001
8176000000	-1.286412E+000	8.564064E+001	-2.169670E+000	1.747624E+002	-2.169670E+000	1.747624E+002	-1.287435E+000	8.536059E+001
8232000000	-1.350261E+000	8.144379E+001	-2.095196E+000	1.704282E+002	-2.095196E+000	1.704282E+002	-1.351231E+000	8.115481E+001
8288000000	-1.427602E+000	7.707186E+001	-2.009870E+000	1.659082E+002	-2.009870E+000	1.659082E+002	-1.428558E+000	7.677146E+001
8344000000	-1.520314E+000	7.250253E+001	-1.914243E+000	1.611758E+002	-1.914243E+000	1.611758E+002	-1.521373E+000	7.218834E+001
8400000000	-1.630752E+000	6.770942E+001	-1.809314E+000	1.562033E+002	-1.809314E+000	1.562033E+002	-1.632056E+000	6.737997E+001
8456000000	-1.762004E+000	6.266475E+001	-1.696425E+000	1.509652E+002	-1.696425E+000	1.509652E+002	-1.763639E+000	6.231894E+001
8512000000	-1.917823E+000	5.734239E+001	-1.577120E+000	1.454371E+002	-1.577120E+000	1.454371E+002	-1.919824E+000	5.697854E+001
