! Created Tue Apr 24 14:53:30 2018
# hz S ma R 50
! 2 Port Network Data from data block
! freq  magS11  angS11  magS21  angS21  magS12  angS12  magS22  angS22  
!     
                 0     0.00108007226                  0        0.998919928                  0        0.998919928                  0      0.00108007226                  0
          56000000      0.0360280772        -91.5215225        0.997787567         -4.0061524        0.997787567         -4.0061524        0.036027861        -91.5228249
         112000000      0.0720417817        -96.5671751        0.995594684        -7.99609258        0.995594684        -7.99609258       0.0720412564        -96.5696114
         168000000       0.107630559        -100.901669        0.992152987        -11.9714154        0.992152987        -11.9714154        0.107629674        -100.905238
         224000000       0.142551933        -105.027014        0.987503109        -15.9218853        0.987503109        -15.9218853        0.142550629        -105.031701
         280000000        0.17658998        -109.043332        0.981732387        -19.8387935        0.981732387        -19.8387935        0.176588198         -109.04912
         336000000       0.209515661        -112.978053        0.974961853        -23.7123267        0.974961853        -23.7123267        0.209513336        -112.984927
         392000000        0.24118171        -116.842096        0.967321697        -27.5369691        0.967321697        -27.5369691        0.241178786         -116.85004
         448000000       0.271434578        -120.637251        0.958961023        -31.3063153        0.958961023        -31.3063153        0.271430998        -120.646251
         504000000       0.300160161         -124.36348        0.950033792        -35.0157571        0.950033792        -35.0157571        0.300155873        -124.373523
         560000000       0.327274001        -128.020162        0.940695126        -38.6619648        0.940695126        -38.6619648        0.327268963        -128.031236
         616000000       0.352719279         -131.60688        0.931096811        -42.2428476        0.931096811        -42.2428476        0.352713453        -131.618975
         672000000       0.376463947        -135.123778        0.921383689        -45.7574797        0.921383689        -45.7574797        0.376457299        -135.136884
         728000000       0.398497269        -138.571688         0.91169102        -49.2060005         0.91169102        -49.2060005        0.398489776        -138.585798
         784000000       0.418826324         -141.95217        0.902142648        -52.5895119        0.902142648        -52.5895119        0.418817964        -141.967276
         840000000       0.437472073        -145.267451        0.892850139        -55.9099438        0.892850139        -55.9099438        0.437462831        -145.283546
         896000000       0.454466002        -148.520372        0.883912423        -59.1699451        0.883912423        -59.1699451        0.454455865        -148.537451
         952000000       0.469846854        -151.714305        0.875416034        -62.3727689        0.875416034        -62.3727689        0.469835814        -151.732362
        1.008e+009       0.483657763        -154.853068         0.86743573        -65.5221681         0.86743573        -65.5221681        0.483645815        -154.872098
        1.064e+009       0.495943767        -157.940847        0.860035358        -68.6223049        0.860035358        -68.6223049        0.495930908        -157.960845
         1.12e+009       0.506749709        -160.982127         0.85326888        -71.6776705         0.85326888        -71.6776705        0.506735937        -161.003088
        1.176e+009       0.516118557        -163.981636        0.847181407        -74.6930246        0.847181407        -74.6930246        0.516103875        -164.003553
        1.232e+009       0.524089736        -166.944272        0.841810428        -77.6733211        0.841810428        -77.6733211        0.524074148        -166.967137
        1.288e+009       0.530698337        -169.875092        0.837186606        -80.6236965        0.837186606        -80.6236965         0.53068185        -169.898896
        1.344e+009       0.535973976        -172.779263        0.833334831        -83.5494167        0.833334831        -83.5494167        0.535956603        -172.803994
          1.4e+009       0.539940098        -175.662038        0.830275004        -86.4558598        0.830275004        -86.4558598        0.539921858        -175.687679
        1.456e+009       0.542613455        -178.528738        0.828022655        -89.3484969        0.828022655        -89.3484969        0.542594377        -178.555269
        1.512e+009       0.544003535         178.615253        0.826589539        -92.2328901        0.826589539        -92.2328901        0.543983662          178.58786
        1.568e+009       0.544112301         175.764505        0.825983912        -95.1146797        0.825983912        -95.1146797        0.544091694         175.736291
        1.624e+009       0.542933834         172.913548        0.826210761        -97.9995876        0.826210761        -97.9995876        0.542912588         172.884566
         1.68e+009       0.540454121         170.056872        0.827271816        -100.893417        0.827271816        -100.893417        0.540432374         170.027196
        1.736e+009       0.536650875         167.188936        0.829165378        -103.802054        0.829165378        -103.802054        0.536628838         167.158673
        1.792e+009       0.531493446         164.304175        0.831885948        -106.731472        0.831885948        -106.731472        0.531471448         164.273477
        1.848e+009       0.524942812         161.397005        0.835423642        -109.687729        0.835423642        -109.687729        0.524921372         161.366097
        1.904e+009        0.51695169          158.46183        0.839763327        -112.676969        0.839763327        -112.676969        0.516931671         158.431053
         1.96e+009       0.507464831         155.493039        0.844883428         -115.70542        0.844883428         -115.70542        0.507447739         155.462926
        2.016e+009       0.496419512         152.484952        0.850754174        -118.779395        0.850754174        -118.779395        0.496408175         152.456382
        2.072e+009       0.483746226         149.431639        0.857334728        -121.905305        0.857334728        -121.905305        0.483746525         149.406152
        2.128e+009       0.469368806         146.326238        0.864566966        -125.089711        0.864566966        -125.089711        0.469394967         146.306768
        2.184e+009       0.453197192         143.158304        0.872355647        -128.339323        0.872355647        -128.339323        0.453292641          143.15095
         2.24e+009       0.435031834          139.90333        0.880475756         -131.65806        0.880475756         -131.65806        0.435384691         139.918434
        2.296e+009       0.413833069         136.614563        0.888802302        -134.995839        0.888802302        -134.995839         0.41494936         136.560553
        2.352e+009       0.391932291          133.47035        0.899008067        -138.443338        0.899008067        -138.443338         0.39230687         133.324136
        2.408e+009        0.36817175         130.114326        0.908697584        -142.014155        0.908697584        -142.014155        0.368259292         129.987008
        2.464e+009       0.341976983         126.692132        0.918285566        -145.663223        0.918285566        -145.663223        0.341986192          126.57427
         2.52e+009       0.313480252          123.23257        0.927757187        -149.398483        0.927757187        -149.398483        0.313457467         123.116728
        2.576e+009       0.282717071         119.756966        0.936947556        -153.223533        0.936947556        -153.223533        0.282676761          119.63837
        2.632e+009       0.249723977         116.300809        0.945655445        -157.139076        0.945655445        -157.139076        0.249671565         116.175351
        2.688e+009       0.214570369         112.928301        0.953661407        -161.143597        0.953661407        -161.143597        0.214507741         112.791239
        2.744e+009       0.177375926         109.764199        0.960736177        -165.233443        0.960736177        -165.233443        0.177302898         109.608625
          2.8e+009       0.138330333         107.082982        0.966649135        -169.402777        0.966649135        -169.402777         0.13824449         106.896712
        2.856e+009      0.0977421111         105.629553        0.971178075        -173.643553        0.971178075        -173.643553        0.097636405         105.386255
        2.912e+009      0.0562896733         108.378887        0.974120194        -177.945566        0.974120194        -177.945566        0.056140308         108.003295
        2.968e+009      0.0189569947         144.353234        0.975303493         177.703394        0.975303493         177.703394       0.0186302076         143.850138
        3.024e+009      0.0374671083        -121.603905        0.974597583         173.317258        0.974597583         173.317258       0.0373705886        -121.115437
         3.08e+009      0.0803401591        -112.340766        0.971922707         168.911266        0.971922707         168.911266       0.0803294746        -112.127386
        3.136e+009       0.124596783        -112.645167        0.967255819         164.501483        0.967255819         164.501483        0.124613379        -112.523791
        3.192e+009       0.168765735        -115.084333        0.960632942         160.104219        0.960632942         160.104219        0.168796045        -115.007304
        3.248e+009       0.212272255        -118.306299        0.952147397         155.735455        0.952147397         155.735455        0.212311042        -118.255245
        3.304e+009       0.254700473        -121.876534        0.941944128          151.41028        0.941944128          151.41028        0.254745123        -121.842536
         3.36e+009       0.295711326        -125.608139        0.930210808         147.142416        0.930210808         147.142416        0.295760325        -125.586228
        3.416e+009       0.335029685        -129.404761        0.917166737         142.943823        0.917166737         142.943823        0.335082055        -129.391872
        3.472e+009       0.372441821        -133.210411        0.903050946          138.82446        0.903050946          138.82446        0.372496886        -133.204528
        3.528e+009       0.407793691        -136.990033        0.888110492         134.792153        0.888110492         134.792153        0.407850962        -136.989756
        3.584e+009       0.440987207        -140.720805        0.872590027          130.85258        0.872590027          130.85258        0.441046318        -140.725118
         3.64e+009       0.471974432        -144.387759        0.856723307         127.009371        0.856723307         127.009371        0.472035112         -144.39591
        3.696e+009       0.500750743        -147.981374        0.840726744         123.264253        0.840726744         123.264253        0.500812783        -147.992773
        3.752e+009       0.527346839        -151.496053        0.824795343         119.617278        0.824795343         119.617278        0.527410083        -151.510235
        3.808e+009       0.551821056        -154.929139        0.809100487         116.067049        0.809100487         116.067049         0.55188539        -154.945729
        3.864e+009       0.574252013          -158.2802        0.793789417         112.610959        0.793789417         112.610959         0.57431736        -158.298885
         3.92e+009       0.594732056        -161.550492        0.778985981         109.245428        0.778985981         109.245428        0.594798369        -161.571011
        3.976e+009       0.613361657        -164.742553         0.76479226         105.966104         0.76479226         105.966104        0.613428912        -164.764679
        4.032e+009        0.63024479        -167.859872        0.751290747         102.768057        0.751290747         102.768057        0.630312987        -167.883407
        4.088e+009       0.645485268        -170.906645         0.73854682          99.645926         0.73854682          99.645926        0.645554426        -170.931411
        4.144e+009       0.659183924        -173.887572        0.726611274         96.5940571        0.726611274         96.5940571        0.659254079         -173.91341
          4.2e+009       0.671436516        -176.807709        0.715522813         93.6065976        0.715522813         93.6065976        0.671507721         -176.83447
        4.256e+009       0.682332223        -179.672352         0.70531037         90.6775762         0.70531037         90.6775762        0.682404545        -179.699898
        4.312e+009        0.69195261         177.513045        0.695995231         87.8009566        0.695995231         87.8009566        0.692026127         177.484847
        4.368e+009       0.700370934         174.742926        0.687592929         84.9706713        0.687592929         84.9706713        0.700445739         174.714205
        4.424e+009       0.707651649         172.011676        0.680114954         82.1806436        0.680114954         82.1806436        0.707727846         171.982555
         4.48e+009       0.713850109         169.313629        0.673570209          79.424781        0.673570209          79.424781        0.713927815         169.284228
        4.536e+009        0.71901222         166.643063        0.667966375         76.6969541        0.667966375         76.6969541        0.719091556         166.613508
        4.592e+009       0.723173893         163.994189        0.663311245         73.9909529        0.663311245         73.9909529        0.723254989         163.964602
        4.648e+009       0.726359987         161.361081        0.659614174         71.3003742        0.659614174         71.3003742        0.726442967         161.331584
        4.704e+009       0.728581566         158.737556        0.656888187         68.6183658        0.656888187         68.6183658        0.728666528         158.708266
         4.76e+009       0.729827425         156.116874        0.655154161         65.9368683        0.655154161         65.9368683        0.729914348         156.087887
        4.816e+009       0.730028615         153.490974        0.654450934         63.2434903        0.654450934         63.2434903        0.730116966         153.462316
        4.872e+009       0.728806038         150.851728        0.654822292         60.4993352        0.654822292         60.4993352        0.728891251         150.823104
        4.928e+009       0.726236895         148.503879        0.652319753         57.7010201        0.652319753         57.7010201        0.726274216         148.478701
        4.984e+009       0.726579094         145.701283        0.656334871         55.2319179        0.656334871         55.2319179        0.726672263         145.677934
         5.04e+009       0.723909206          143.05723        0.659163281         52.5631972        0.659163281         52.5631972        0.724011377          143.03661
        5.096e+009       0.719229157         140.330461        0.663594956         49.7686883        0.663594956         49.7686883        0.719335567          140.31142
        5.152e+009       0.713398509          137.56562        0.669089201         46.9303211        0.669089201         46.9303211        0.713509423         137.548478
        5.208e+009       0.706328317         134.753017        0.675694116         44.0390426        0.675694116         44.0390426        0.706444131         134.738124
        5.264e+009       0.697913592         131.883909        0.683444068         41.0856101        0.683444068         41.0856101         0.69803477         131.871657
         5.32e+009       0.688030731         128.949554        0.692369063         38.0603981        0.692369063         38.0603981        0.688157802         128.940396
        5.376e+009       0.676539075         125.940529          0.7024913         34.9528104          0.7024913         34.9528104        0.676672634         125.934989
        5.432e+009       0.663272318         122.847387        0.713829667         31.7519298        0.713829667         31.7519298        0.663413038         122.846086
        5.488e+009       0.648040939         119.660235        0.726392034         28.4460012        0.726392034         28.4460012        0.648189584         119.663908
        5.544e+009       0.630629668         116.368979        0.740171654         25.0225608        0.740171654         25.0225608        0.630787109         116.378514
          5.6e+009       0.610796889          112.96357         0.75514104         21.4684935         0.75514104         21.4684935        0.610964125         112.980057
        5.656e+009       0.588275507         109.434436        0.771244133         17.7701711        0.771244133         17.7701711          0.5884537         109.459213
        5.712e+009        0.56277588         105.773114        0.788386876         13.9136739        0.788386876         13.9136739        0.562966393         105.807871
        5.768e+009       0.533992028         101.973297        0.806426078         9.88515173        0.806426078         9.88515173        0.534196496         102.020219
        5.824e+009       0.501611973          98.032486         0.82515729         5.67135423         0.82515729         5.67135423        0.501832393         98.0944447
         5.88e+009       0.465336607         93.9546437        0.844300845         1.26038617        0.844300845         1.26038617        0.465575501         94.0355255
        5.936e+009        0.42490179         89.7545873         0.86349216        -3.35735281         0.86349216        -3.35735281        0.425162475          89.859836
        5.992e+009       0.380109568         85.4657898         0.88227501        -8.18808838         0.88227501        -8.18808838         0.38039665         85.6033715
        6.048e+009       0.330875618         81.1560419        0.900099451        -13.2331166        0.900099451        -13.2331166        0.331195944         81.3382161
        6.104e+009       0.277276971         76.9620262         0.91633614        -18.4875291         0.91633614        -18.4875291        0.277641718         77.2091817
         6.16e+009       0.219619363         73.1823475        0.930303576        -23.9388393        0.930303576        -23.9388393        0.220049103         73.5319017
        6.216e+009       0.158551933         70.5944989        0.941313523        -29.5660697        0.941313523        -29.5660697        0.159091861         71.1261075
        6.272e+009      0.0954997381         72.0456608        0.948731667        -35.3394707        0.948731667        -35.3394707       0.0962824601         72.9684836
        6.328e+009      0.0375975179         99.0017178        0.952046586        -41.2212665        0.952046586        -41.2212665       0.0392257135         100.438642
        6.384e+009      0.0527905734        -170.532262        0.950934456         -47.167223        0.950934456         -47.167223       0.0537014225        -172.505102
         6.44e+009       0.115786833        -157.603757        0.945305783        -53.1295123        0.945305783        -53.1295123        0.116074436        -158.679109
