! Created Tue Apr 24 14:54:15 2018
# mhz S ri R 50
! 2 Port Network Data from data block
! freq  reS11  imS11  reS21  imS21  reS12  imS12  reS22  imS22  
!     
                 0     0.00108007226                 -0        0.998919928                 -0        0.998919928                 -0      0.00108007226                 -0
                56   -0.000956633912      -0.0360153745        0.995349527       -0.069709023        0.995349527       -0.069709023    -0.000957446895      -0.0360151366
               112    -0.00823927638       -0.071569076        0.985915072       -0.138492763        0.985915072       -0.138492763     -0.00824225941      -0.0715682037
               168     -0.0203555274       -0.105688172        0.970574855       -0.205796015        0.970574855       -0.205796015      -0.0203619426       -0.105686035
               224     -0.0369600719       -0.137677183        0.949619127       -0.270898327        0.949619127       -0.270898327      -0.0369709959         -0.1376729
               280     -0.0576183354       -0.166925578         0.92346775        -0.33317532         0.92346775        -0.33317532       -0.057634615       -0.166918072
               336     -0.0817904083       -0.192891527        0.892651768       -0.392075804        0.892651768       -0.392075804      -0.0818126426       -0.192879573
               392      -0.108901552       -0.215195421        0.857736446       -0.447212985        0.857736446       -0.447212985       -0.108930068        -0.21517771
               448       -0.13832331       -0.233545268        0.819337796       -0.498288892        0.819337796       -0.498288892       -0.138358169       -0.233520457
               504      -0.169422692       -0.247774239        0.778072234       -0.545130997        0.778072234       -0.545130997         -0.1694637       -0.247740999
               560      -0.201580733       -0.257824513        0.734537364       -0.587675234        0.734537364       -0.587675234       -0.201627457       -0.257781579
               616      -0.234211246       -0.263734681        0.689292883       -0.625952548        0.689292883       -0.625952548       -0.234263044       -0.263680879
               672      -0.266774668       -0.265624509        0.642846584       -0.660072853        0.642846584       -0.660072853        -0.26683071       -0.265558789
               728      -0.298786958       -0.263678644        0.595645416       -0.690207979        0.595645416       -0.690207979       -0.298846262       -0.263600101
               784      -0.329824278       -0.258130656        0.548070828       -0.716574996        0.548070828       -0.716574996       -0.329885735       -0.258038541
               840      -0.359523522       -0.249248173        0.500438284       -0.739420648        0.500438284       -0.739420648       -0.359585927       -0.249141906
               896      -0.387580374       -0.237320038        0.452999254       -0.759007804        0.452999254       -0.759007804        -0.38764245       -0.237199207
               952      -0.413745116        -0.22264556        0.405945447       -0.775603975        0.405945447       -0.775603975        -0.41380554       -0.222509926
              1008      -0.437817175        -0.20552604         0.35941431       -0.789472038         0.35941431       -0.789472038       -0.437874597       -0.205375538
              1064      -0.459639001       -0.186258446        0.313495188       -0.800863025        0.313495188       -0.800863025       -0.459692064        -0.18609318
              1120      -0.479089775       -0.165131024        0.268235691       -0.810010738        0.268235691       -0.810010738       -0.479137131       -0.164951264
              1176      -0.496079378        -0.14242056        0.223647824       -0.817127889        0.223647824       -0.817127889       -0.496119706       -0.142226744
              1232       -0.51054244       -0.118391167         0.17971416       -0.822403561         0.17971416       -0.822403561       -0.510574458       -0.118183903
              1288      -0.522433693      -0.0932939506          0.1363927        -0.82600148          0.1363927        -0.82600148       -0.522456176      -0.0930740045
              1344      -0.531723314      -0.0673678021       0.0936220284        -0.82805909       0.0936220284        -0.82805909       -0.531735106       -0.067136112
              1400      -0.538393297      -0.0408407506       0.0513255049       -0.828687079       0.0513255049       -0.828687079       -0.538393332      -0.0405984279
              1456      -0.542434571      -0.0139318952      0.00941513816       -0.827969125      0.00941513816       -0.827969125       -0.542421892       -0.013680234
              1512      -0.543844663       0.0131464151      -0.0322051018       -0.825961922      -0.0322051018       -0.825961922       -0.543818449       0.0134059291
              1568      -0.542626284       0.0401859668      -0.0736360439       -0.822695056      -0.0736360439       -0.822695056       -0.542585879       0.0404516381
              1624      -0.538786437       0.0669800232       -0.114980424       -0.818170962       -0.114980424       -0.818170962       -0.538731404       0.0672499249
              1680      -0.532336301       0.0933205202       -0.156339993       -0.812364736       -0.156339993       -0.812364736       -0.532266476        0.093592462
              1736      -0.523291786        0.118995245       -0.197812555        -0.80522383       -0.197812555        -0.80522383       -0.523207375         0.11926673
              1792      -0.511674832        0.143785081       -0.239488819       -0.796667645       -0.239488819       -0.796667645       -0.511576547        0.144053241
              1848       -0.49751546        0.167461406       -0.281448894       -0.786587046       -0.281448894       -0.786587046       -0.497404736        0.167722911
              1904      -0.480854609         0.18978381        -0.32375831       -0.774843857        -0.32375831       -0.774843857       -0.480733978        0.190034721
              1960      -0.461747771        0.210498338       -0.366463392       -0.761270378       -0.366463392       -0.761270378       -0.461621527        0.210733894
              2016      -0.440269268         0.22933666       -0.409585812       -0.745668913       -0.409585812       -0.745668913       -0.440144804        0.229550927
              2072      -0.416516624        0.246016896       -0.453115927       -0.727810959       -0.453115927       -0.727810959       -0.416407404        0.246202303
              2128      -0.390612534        0.260247814       -0.497003513       -0.707434482       -0.497003513       -0.707434482       -0.390545837        0.260395054
              2184      -0.362691549         0.27173983       -0.541137465       -0.684232869       -0.541137465       -0.684232869       -0.362733052        0.271843616
              2240      -0.332781447        0.280194942       -0.585237832       -0.657825385       -0.585237832       -0.657825385       -0.333125278        0.280334404
              2296      -0.300752889        0.284263098       -0.628432486        -0.62852378       -0.628432486        -0.62852378       -0.301295335        0.285314025
              2352      -0.269641228        0.284437214        -0.67272779       -0.596366352        -0.67272779       -0.596366352       -0.269171498         0.28539689
              2408      -0.237218531        0.281563147        -0.71620166       -0.559273172        -0.71620166       -0.559273172       -0.236648534        0.282156654
              2464      -0.204336391        0.274216878       -0.758261826       -0.517964656       -0.758261826       -0.517964656        -0.20377736         0.27464403
              2520       -0.17179934         0.26221147       -0.798547101       -0.472287968       -0.798547101       -0.472287968       -0.171256395        0.262539198
              2576      -0.140318718        0.245437568       -0.836479542       -0.422105079       -0.836479542       -0.422105079       -0.139790455         0.24569245
              2632      -0.110648661        0.223872594       -0.871374754       -0.367382986       -0.871374754       -0.367382986       -0.110135072        0.224067303
              2688      -0.083592092        0.197617827       -0.902479886       -0.308220918       -0.902479886       -0.308220918      -0.0830948559         0.19775949
              2744     -0.0599796604        0.166927108       -0.929005294       -0.244873776       -0.929005294       -0.244873776      -0.0595016776        0.167020562
              2800     -0.0406354229        0.132227242       -0.950162221       -0.177770367       -0.950162221       -0.177770367      -0.0401803845        0.132276512
              2856     -0.0263333448       0.0941279726       -0.965207627       -0.107522511       -0.965207627       -0.107522511      -0.0259053628       0.0941370265
              2912     -0.0177480984       0.0534184643       -0.973494048      -0.0349211981       -0.973494048      -0.0349211981      -0.0173513799       0.0533916079
              2968     -0.0154049344       0.0110478796         -0.9745201       0.0390829555         -0.9745201       0.0390829555      -0.0150434608       0.0109899464
              3024     -0.0196344116      -0.0319104072        -0.96797592        0.113415462        -0.96797592        0.113415462       -0.019311775      -0.0319940032
              3080     -0.0305384471      -0.0743097868       -0.953777398        0.186928928       -0.953777398        0.186928928      -0.0302574688      -0.0744131042
              3136     -0.0479726253       -0.114991241       -0.932083852        0.258463756       -0.932083852        0.258463756      -0.0477352772       -0.115107939
              3192     -0.0715485338       -0.152848554       -0.903295825        0.326913293       -0.903295825        0.326913293      -0.0713557928       -0.152972075
              3248      -0.100656319       -0.186889849       -0.868032557        0.391285249       -0.868032557        0.391285249       -0.100508112        -0.18701363
              3304      -0.134504922       -0.216288596       -0.827091796        0.450752594       -0.827091796        0.450752594       -0.134400113       -0.216406301
              3360      -0.172174507        -0.24041865       -0.781397307        0.504688415       -0.781397307        0.504688415       -0.172111072       -0.240524321
              3416      -0.212675074       -0.258871016       -0.731940383        0.552682639       -0.731940383        0.552682639        -0.21265007       -0.258959324
              3472      -0.255003298       -0.271452073       -0.679722875        0.594540011       -0.679722875        0.594540011       -0.255013122       -0.271518393
              3528      -0.298193039       -0.278166508       -0.625706726        0.630262913       -0.625706726        0.630262913       -0.298233574       -0.278207014
              3584      -0.341355035       -0.279188926       -0.570774241        0.660022818       -0.570774241        0.660022818       -0.341421807       -0.279200652
              3640      -0.383704062       -0.274829142       -0.515700854         0.68412532       -0.515700854         0.68412532       -0.383792491       -0.274809882
              3696      -0.424574429       -0.265495501       -0.461139668        0.702973445       -0.461139668        0.702973445       -0.424679847       -0.265443913
              3752      -0.463424092       -0.251660088       -0.407617197        0.717032481       -0.407617197        0.717032481       -0.463541955       -0.251575539
              3808      -0.499830914       -0.233828003       -0.355537065        0.726799143       -0.355537065        0.726799143       -0.499956877       -0.233710514
              3864      -0.533482841       -0.212512194        -0.30518973        0.732776137        -0.30518973        0.732776137       -0.533612834       -0.212362363
              3920      -0.564164562       -0.188214149       -0.256765705        0.735452603       -0.256765705        0.735452603       -0.564294841       -0.188033061
              3976      -0.591742577       -0.161410174       -0.210370363        0.735290086       -0.210370363        0.735290086       -0.591869755       -0.161199326
              4032      -0.616150115       -0.132542565       -0.166038861         0.73271337       -0.166038861         0.73271337       -0.616271182       -0.132303786
              4088      -0.637372902       -0.102014778       -0.123750187        0.728105278       -0.123750187        0.728105278       -0.637485232       -0.101750167
              4144      -0.655436379      -0.0701897348      -0.0834397619        0.721804509      -0.0834397619        0.721804509       -0.655537724      -0.0699016002
              4200      -0.670394625      -0.0373903939      -0.0450102785        0.714105714      -0.0450102785        0.714105714       -0.670483112      -0.0370812055
              4256      -0.682321066     -0.00390191971     -0.00834076113        0.705261051     -0.00834076113        0.705261051       -0.682395184     -0.00357426572
              4312      -0.691300878       0.0300251541       0.0267061208         0.69548267       0.0267061208         0.69548267       -0.691359464       0.0303686019
              4368      -0.697424909       0.0641711853       0.0602782921        0.684945665       0.0602782921        0.684945665       -0.697467141       0.0645276675
              4424      -0.700784887       0.0983432671       0.0925298242        0.673791201       0.0925298242        0.673791201       -0.700810265        0.098710065
              4480       -0.70146976        0.132371274        0.123617784        0.662129496        0.123617784        0.662129496       -0.701478092        0.132745665
              4536      -0.699562785        0.166103831        0.153700046        0.650042594        0.153700046        0.650042594       -0.699554189        0.166483042
              4592      -0.695139142        0.199404243        0.182934036        0.637586815        0.182934036        0.637586815       -0.695114019        0.199785583
              4648       -0.68826352        0.232146844        0.211476792        0.624794706        0.211476792        0.624794706        -0.68822253        0.232527704
              4704      -0.678986387        0.264213143        0.239487193        0.611676364        0.239487193        0.611676364       -0.678930392        0.264591065
              4760      -0.667334661        0.295486921        0.267134517        0.598219127        0.267134517        0.598219127       -0.667264544        0.295859737
              4816      -0.653276372        0.325840085        0.294633741        0.584377432        0.294633741        0.584377432       -0.653192351         0.32620628
              4872      -0.636511622        0.354980557        0.322456537         0.56992457        0.322456537         0.56992457       -0.636408606        0.355340037
              4928      -0.619244435        0.379415811        0.348558775        0.551387196        0.348558775        0.551387196       -0.619109458        0.379707408
              4984      -0.600234921        0.409432802        0.374278924        0.539157444        0.374278924        0.539157444       -0.600144968        0.409729905
              5040       -0.57857447         0.43508174        0.400696124        0.523391677        0.400696124        0.523391677        -0.57849949        0.435351369
              5096      -0.553618764        0.459126175        0.428599392        0.506617042        0.428599392        0.506617042       -0.553548034        0.459378092
              5152      -0.526524195        0.481362342          0.4569125        0.488785562          0.4569125        0.488785562       -0.526461996        0.481594708
              5208      -0.497291947        0.501597858        0.485733714        0.469707672        0.485733714        0.469707672       -0.497243064        0.501809371
              5264      -0.465943511        0.519596023        0.515131251         0.44914985        0.515131251         0.44914985       -0.465913277        0.519785878
              5320      -0.432520827        0.535081322        0.545144619        0.426839858        0.545144619        0.426839858       -0.432515155        0.535249289
              5376      -0.397091361        0.547744074         0.57577885        0.402458373         0.57577885        0.402458373       -0.397116784        0.547890603
              5432      -0.359761045        0.557227205        0.606993994        0.375647554        0.606993994        0.375647554       -0.359824713          0.5573536
              5488      -0.320686747        0.563131484        0.638692126        0.346002536        0.638692126        0.346002536       -0.320796415        0.563240088
              5544      -0.280094264        0.565014143         0.67070011        0.313074177         0.67070011        0.313074177       -0.280258244        0.565108568
              5600      -0.238299827         0.56239313        0.702748572        0.276373724        0.702748572        0.276373724       -0.238526934        0.562478501
              5656       -0.19573571        0.554757248        0.734446851         0.23538338        0.734446851         0.23538338       -0.196034954        0.554840566
              5712      -0.152978631        0.541584924        0.765254913        0.189575273        0.765254913        0.189575273       -0.153359038        0.541675332
              5768      -0.110779738        0.522374708        0.794453754        0.138442231        0.794453754        0.138442231        -0.11125008        0.522483795
              5824     -0.0700925221        0.496690658        0.821118229        0.081543897        0.821118229        0.081543897       -0.070660631        0.496832795
              5880     -0.0320927597        0.464228621        0.844096572        0.018571338        0.844096572        0.018571338      -0.0327648698        0.464421156
              5936     0.00181995912        0.424897892        0.862010144      -0.0505689793        0.862010144      -0.0505689793      0.00104008361        0.425161203
              5992      0.0300493041        0.378919943        0.873280976       -0.125656394        0.873280976       -0.125656394       0.0291613432        0.379277243
              6048      0.0508701324        0.326941744         0.87619889       -0.206044965         0.87619889       -0.206044965       0.0498785944        0.327418508
              6104      0.0625527937        0.270128982        0.869046503       -0.290568576        0.869046503       -0.290568576       0.0614677182        0.270751996
              6160      0.0635417516        0.210226331        0.850278035       -0.377481134        0.850278035       -0.377481134       0.0623798367        0.211022188
              6216       0.052679148        0.149544719        0.818742535       -0.464469385        0.818742535       -0.464469385       0.0514640357        0.150537946
              6272      0.0294386509       0.0908491376        0.773917719       -0.548765105        0.773917719       -0.548765105       0.0282009101       0.0920598761
              6328    -0.00588266092       0.0371344537        0.716101234        -0.62736889        0.716101234        -0.62736889     -0.00710701131       0.0385765083
              6384     -0.0520714803     -0.00868363848        0.646503189        -0.69735928        0.646503189        -0.69735928      -0.0532426234     -0.00700470107
              6440       -0.10705315      -0.0441159127        0.567191258       -0.756238785        0.567191258       -0.756238785       -0.108130153      -0.0422036107
