!S2P File: Measurements: S11, S21, S12, S22:
# Hz S  dB   R 50
7000000000 -14.664575 174.53123 -11.175992 -50.723278 -61.813366 115.32038 -10.910935 124.56578
7100000000 -15.807991 166.79182 -10.621151 -75.014572 -62.739262 102.29949 -11.422973 119.81226
7200000000 -17.178749 157.89371 -10.133427 -98.863174 -63.24033 88.396561 -11.932728 115.22681
7300000000 -18.699953 147.3495 -9.7486773 -122.40868 -63.616108 83.790016 -12.410826 111.05751
7400000000 -20.458509 134.60182 -9.3806458 -145.88098 -63.656502 66.174332 -12.890009 106.84206
7500000000 -22.23632 118.52071 -9.1116781 -169.1188 -63.129429 53.482502 -13.32555 102.74387
7600000000 -23.871174 98.409912 -8.8904657 167.71077 -64.308167 40.320477 -13.767561 98.412849
7700000000 -24.857021 75.720779 -8.7082157 145.02667 -62.776714 20.921686 -14.191236 94.022369
7800000000 -24.839748 52.6479 -8.5913572 122.29962 -62.523365 6.7098727 -14.624017 88.990395
7900000000 -24.157434 35.252159 -8.4781189 99.778885 -63.916756 -22.57481 -15.044836 84.324638
8000000000 -23.181351 21.731274 -8.4245596 77.742676 -63.748421 -51.115898 -15.494361 78.649399
8100000000 -22.197849 12.381824 -8.3973913 55.485687 -68.350029 -73.531921 -15.937028 73.135422
8200000000 -21.118858 5.9473562 -8.3472071 33.733784 -73.93161 -58.184341 -16.403917 66.808914
8300000000 -20.214264 0.65599078 -8.386447 12.152545 -70.980453 -38.640064 -16.932968 60.748981
8400000000 -19.28948 -2.6943381 -8.342741 -9.727911 -70.46685 -52.05019 -17.3458 53.807255
8500000000 -18.385822 -6.1087251 -8.3329372 -31.021023 -70.62027 -74.240616 -17.862474 47.31118
8600000000 -17.495081 -9.2698736 -8.3676128 -52.358337 -72.237282 -72.743988 -18.290638 40.008224
8700000000 -16.648073 -13.028062 -8.35501 -73.564667 -72.134094 -60.222832 -18.764149 33.065453
8800000000 -15.842897 -16.464817 -8.3383389 -94.636414 -70.620338 -72.736076 -19.130774 25.520525
8900000000 -15.188117 -20.730219 -8.3407688 -115.59264 -72.032639 -79.771828 -19.51869 18.741129
9000000000 -14.554909 -24.854439 -8.3307867 -136.41447 -72.086136 -76.831757 -19.892862 11.7726
9100000000 -14.083838 -28.877457 -8.3301888 -156.79965 -72.087799 -74.363823 -20.113813 5.394537
9200000000 -13.638385 -33.445503 -8.2916775 -177.11981 -69.177803 -76.08725 -20.343994 -0.031366002
9300000000 -13.305927 -37.747204 -8.2522078 162.94675 -69.194122 -94.108871 -20.470804 -5.6067519
9400000000 -13.044498 -42.419315 -8.2042933 142.96745 -70.715103 -95.720222 -20.520069 -9.6702538
9500000000 -12.905547 -46.789017 -8.1398973 123.45013 -69.883537 -97.643723 -20.552988 -14.041151
9600000000 -12.846331 -51.200924 -8.0879641 103.96571 -69.128258 -92.976105 -20.449427 -16.677845
9700000000 -12.872633 -55.116512 -8.0410976 84.784332 -68.290993 -97.051132 -20.333261 -19.685169
9800000000 -12.962829 -59.093254 -8.0058765 65.683128 -67.766495 -105.60474 -20.065544 -21.207432
9900000000 -13.113279 -62.470016 -7.9845424 46.953472 -67.923607 -104.60839 -19.75725 -23.201889
10000000000 -13.346756 -65.72226 -8.0111828 28.233871 -67.418465 -113.68926 -19.336514 -24.374434
10100000000 -13.629193 -68.17601 -8.0109615 9.8106146 -66.661102 -114.33492 -18.865715 -25.853916
10200000000 -13.922951 -70.525307 -8.0575724 -8.5208502 -67.872391 -116.31643 -18.377035 -27.052233
10300000000 -14.206985 -72.16378 -8.0876436 -26.793055 -66.035332 -116.78298 -17.82757 -28.493908
10400000000 -14.551342 -73.465973 -8.1610937 -45.042969 -65.272537 -119.58365 -17.246973 -29.939934
10500000000 -14.823753 -74.298103 -8.2427845 -63.358032 -64.819641 -125.63427 -16.679729 -31.486059
10600000000 -15.120185 -74.933182 -8.3544722 -81.544945 -64.651131 -132.11786 -16.077545 -33.318378
10700000000 -15.298255 -75.21859 -8.4809713 -99.882912 -64.735634 -131.13405 -15.529974 -35.189526
10800000000 -15.535627 -75.631783 -8.623332 -118.17042 -64.818962 -135.04932 -14.934524 -37.214439
10900000000 -15.689486 -75.550232 -8.7915735 -136.62422 -63.854031 -134.56816 -14.438828 -39.264515
11000000000 -15.887812 -76.095314 -8.962945 -155.07863 -63.8195 -133.68962 -13.889824 -41.419666
11100000000 -15.994741 -76.401535 -9.1320734 -173.57271 -62.34552 -137.51314 -13.426344 -43.689194
11200000000 -16.146215 -77.162857 -9.3082342 167.70145 -61.238953 -137.94147 -12.942251 -45.900024
11300000000 -16.308151 -77.29628 -9.4233875 148.78453 -61.020042 -145.44713 -12.517689 -48.434433
11400000000 -16.526541 -77.790344 -9.5882053 130.02716 -59.103828 -150.1709 -12.102432 -50.624226
11500000000 -16.757 -78.119057 -9.7401676 110.648 -58.117264 -153.2511 -11.75368 -52.954365
11600000000 -16.928112 -78.35743 -9.7878017 91.813362 -57.757557 -165.18605 -11.406872 -55.241852
11700000000 -17.218071 -78.309235 -9.9095783 72.92733 -56.677349 -170.20287 -11.079327 -57.365368
11800000000 -17.497126 -78.138435 -9.9584255 53.71059 -56.269138 -177.5954 -10.793382 -59.393139
11900000000 -17.708052 -76.772636 -9.9466677 35.337017 -55.089142 169.43985 -10.509884 -61.541687
12000000000 -17.900774 -75.78492 -9.9743462 16.808651 -54.84549 158.95021 -10.227619 -63.346561
12100000000 -17.907898 -75.181297 -9.8533354 -1.9577659 -56.229179 148.21037 -10.020155 -65.280746
12200000000 -17.95817 -74.871635 -9.8179159 -20.00116 -56.236443 139.78052 -9.7419262 -66.932831
12300000000 -18.031889 -73.899521 -9.7896786 -38.885532 -56.153278 136.88927 -9.5576401 -68.726921
12400000000 -18.110744 -74.263733 -9.7106972 -56.79398 -56.345333 129.79088 -9.2945938 -70.144325
12500000000 -18.294876 -73.630806 -9.715909 -74.839172 -55.95776 121.664 -9.1254702 -71.827133
12600000000 -18.509836 -73.624352 -9.7032366 -92.69651 -56.44305 115.47599 -8.858036 -73.025345
12700000000 -18.729364 -71.773857 -9.6832123 -110.45326 -56.626324 106.60375 -8.6851225 -74.61673
12800000000 -18.775846 -69.504555 -9.7365065 -128.08014 -56.873844 104.55122 -8.4127464 -75.800545
12900000000 -18.631958 -67.211372 -9.7773762 -146.24437 -57.434669 97.576347 -8.2088623 -77.336136
13000000000 -18.302479 -65.492264 -9.9168129 -164.01292 -56.715012 93.051888 -7.9410324 -78.630295
