! This file was normalized.
!Agilent Technologies,E5071B,MY42404614,A.06.51
!Date: Mon Aug 04 16:37:59 2014
!Data & Calibration Information:
!Freq	S11:SOLT2(ON)	S21:SOLT2(ON)	S12:SOLT2(ON)	S22:SOLT2(ON)
# Hz S dB R 50
798500000	-2.185117E+001	-1.277729E+002	1.059839E+000	3.531286E+001	1.068879E+000	3.656197E+001	-2.580103E+001	-6.979472E+001
798515000	-2.188628E+001	-1.282400E+002	1.080109E+000	3.525029E+001	1.073391E+000	3.658511E+001	-2.574266E+001	-6.993536E+001
798530000	-2.183989E+001	-1.284136E+002	1.093519E+000	3.548083E+001	1.044725E+000	3.661478E+001	-2.578119E+001	-6.964940E+001
798545000	-2.189710E+001	-1.281656E+002	1.064331E+000	3.550417E+001	1.061875E+000	3.660147E+001	-2.581932E+001	-6.992047E+001
798560000	-2.181610E+001	-1.281946E+002	1.089606E+000	3.552530E+001	1.074166E+000	3.672201E+001	-2.581477E+001	-6.969619E+001
798575000	-2.187669E+001	-1.277683E+002	1.045853E+000	3.543071E+001	1.043574E+000	3.675335E+001	-2.581224E+001	-6.966828E+001
798590000	-2.188256E+001	-1.280257E+002	1.077313E+000	3.554420E+001	1.028022E+000	3.676384E+001	-2.582272E+001	-6.960256E+001
798605000	-2.179524E+001	-1.280452E+002	1.055444E+000	3.565505E+001	1.048266E+000	3.680393E+001	-2.581968E+001	-6.975431E+001
798620000	-2.182120E+001	-1.277753E+002	1.057542E+000	3.555418E+001	1.046858E+000	3.676586E+001	-2.577440E+001	-6.961315E+001
798635000	-2.186737E+001	-1.281362E+002	1.092180E+000	3.554119E+001	1.047203E+000	3.690061E+001	-2.577205E+001	-6.967798E+001
798650000	-2.176584E+001	-1.282594E+002	1.090498E+000	3.566279E+001	1.081851E+000	3.685322E+001	-2.578760E+001	-6.973921E+001
798665000	-2.183654E+001	-1.277609E+002	1.060278E+000	3.580791E+001	1.018159E+000	3.698522E+001	-2.580945E+001	-6.964291E+001
798680000	-2.187119E+001	-1.278884E+002	1.077781E+000	3.565021E+001	1.030714E+000	3.696648E+001	-2.577618E+001	-6.974451E+001
798695000	-2.179123E+001	-1.277610E+002	1.078787E+000	3.574375E+001	1.050387E+000	3.701320E+001	-2.576927E+001	-6.958283E+001
798710000	-2.179665E+001	-1.278067E+002	1.063448E+000	3.587371E+001	1.076585E+000	3.701833E+001	-2.577729E+001	-6.964186E+001
798725000	-2.178506E+001	-1.281891E+002	1.080980E+000	3.574975E+001	1.061486E+000	3.702512E+001	-2.575890E+001	-6.974701E+001
798740000	-2.176800E+001	-1.276761E+002	1.081801E+000	3.589197E+001	1.039318E+000	3.711666E+001	-2.575851E+001	-6.969183E+001
798755000	-2.188316E+001	-1.278041E+002	1.053542E+000	3.588658E+001	1.058472E+000	3.719947E+001	-2.577048E+001	-6.945361E+001
798770000	-2.174778E+001	-1.284694E+002	1.114375E+000	3.599033E+001	1.045597E+000	3.724584E+001	-2.578419E+001	-6.913341E+001
798785000	-2.179547E+001	-1.281119E+002	1.075024E+000	3.598426E+001	1.066341E+000	3.710646E+001	-2.576980E+001	-6.942845E+001
798800000	-2.178229E+001	-1.278232E+002	1.075816E+000	3.604515E+001	1.068850E+000	3.721296E+001	-2.579014E+001	-6.937916E+001
798815000	-2.181768E+001	-1.275721E+002	1.081926E+000	3.603152E+001	1.045417E+000	3.726054E+001	-2.575344E+001	-6.920775E+001
798830000	-2.180818E+001	-1.278961E+002	1.068884E+000	3.619666E+001	1.067398E+000	3.724909E+001	-2.571958E+001	-6.937870E+001
798845000	-2.174271E+001	-1.280156E+002	1.070848E+000	3.601355E+001	1.066963E+000	3.739219E+001	-2.571566E+001	-6.930040E+001
798860000	-2.175883E+001	-1.279108E+002	1.094119E+000	3.605860E+001	1.052004E+000	3.737453E+001	-2.576831E+001	-6.933764E+001
798875000	-2.175826E+001	-1.280464E+002	1.060074E+000	3.616617E+001	1.051246E+000	3.743811E+001	-2.579138E+001	-6.920835E+001
798890000	-2.176211E+001	-1.274074E+002	1.065406E+000	3.626388E+001	1.050413E+000	3.738063E+001	-2.575577E+001	-6.912545E+001
798905000	-2.172872E+001	-1.276053E+002	1.084601E+000	3.631853E+001	1.029640E+000	3.737096E+001	-2.574611E+001	-6.919936E+001
798920000	-2.171586E+001	-1.279852E+002	1.107418E+000	3.631808E+001	1.051337E+000	3.747881E+001	-2.574785E+001	-6.922816E+001
798935000	-2.176824E+001	-1.274901E+002	1.063306E+000	3.637597E+001	1.075102E+000	3.752012E+001	-2.573779E+001	-6.925709E+001
798950000	-2.177428E+001	-1.275710E+002	1.061974E+000	3.630466E+001	1.032835E+000	3.756647E+001	-2.579502E+001	-6.939659E+001
798965000	-2.176845E+001	-1.281291E+002	1.092273E+000	3.635890E+001	1.094511E+000	3.769260E+001	-2.575794E+001	-6.917323E+001
798980000	-2.179274E+001	-1.277500E+002	1.071721E+000	3.628179E+001	1.055513E+000	3.768361E+001	-2.574518E+001	-6.912841E+001
798995000	-2.184040E+001	-1.275716E+002	1.079583E+000	3.632137E+001	1.021726E+000	3.766171E+001	-2.573798E+001	-6.903826E+001
799010000	-2.170246E+001	-1.275747E+002	1.076656E+000	3.648333E+001	1.064347E+000	3.772014E+001	-2.575467E+001	-6.915305E+001
799025000	-2.167288E+001	-1.278785E+002	1.109625E+000	3.657328E+001	1.077165E+000	3.774279E+001	-2.570920E+001	-6.882542E+001
799040000	-2.168911E+001	-1.277218E+002	1.081899E+000	3.668018E+001	1.060343E+000	3.784739E+001	-2.573711E+001	-6.900703E+001
799055000	-2.171816E+001	-1.276498E+002	1.072238E+000	3.671941E+001	1.052209E+000	3.776054E+001	-2.573874E+001	-6.903173E+001
799070000	-2.172975E+001	-1.275300E+002	1.061787E+000	3.670973E+001	1.066451E+000	3.787377E+001	-2.577306E+001	-6.908572E+001
799085000	-2.174199E+001	-1.273905E+002	1.065526E+000	3.671791E+001	1.062707E+000	3.791193E+001	-2.576087E+001	-6.866501E+001
799100000	-2.167641E+001	-1.280543E+002	1.074153E+000	3.673146E+001	1.062316E+000	3.792237E+001	-2.573496E+001	-6.893152E+001
799115000	-2.170747E+001	-1.275110E+002	1.061703E+000	3.685254E+001	1.067157E+000	3.792572E+001	-2.577981E+001	-6.863058E+001
799130000	-2.167480E+001	-1.275323E+002	1.095901E+000	3.682348E+001	1.065490E+000	3.802084E+001	-2.573981E+001	-6.885783E+001
799145000	-2.176692E+001	-1.275826E+002	1.091121E+000	3.670156E+001	1.050809E+000	3.799346E+001	-2.571028E+001	-6.872172E+001
799160000	-2.168695E+001	-1.274798E+002	1.088520E+000	3.691250E+001	1.060481E+000	3.806909E+001	-2.572995E+001	-6.851572E+001
799175000	-2.177421E+001	-1.271164E+002	1.058632E+000	3.686664E+001	1.056342E+000	3.814994E+001	-2.575999E+001	-6.903634E+001
799190000	-2.178429E+001	-1.275890E+002	1.080531E+000	3.690520E+001	1.034645E+000	3.811943E+001	-2.571930E+001	-6.857867E+001
799205000	-2.172614E+001	-1.270991E+002	1.064212E+000	3.680247E+001	1.054951E+000	3.816769E+001	-2.574226E+001	-6.891278E+001
799220000	-2.164362E+001	-1.272097E+002	1.076245E+000	3.704718E+001	1.034125E+000	3.823634E+001	-2.573466E+001	-6.872264E+001
799235000	-2.171208E+001	-1.278473E+002	1.088029E+000	3.696360E+001	1.080970E+000	3.829272E+001	-2.570967E+001	-6.870653E+001
799250000	-2.167862E+001	-1.277957E+002	1.077733E+000	3.701034E+001	1.071231E+000	3.830466E+001	-2.573784E+001	-6.880457E+001
799265000	-2.164955E+001	-1.275448E+002	1.072185E+000	3.707797E+001	1.075784E+000	3.835161E+001	-2.573637E+001	-6.856607E+001
799280000	-2.171016E+001	-1.273615E+002	1.077884E+000	3.724198E+001	1.043158E+000	3.832121E+001	-2.573490E+001	-6.864238E+001
799295000	-2.159907E+001	-1.276287E+002	1.104384E+000	3.715342E+001	1.063211E+000	3.834462E+001	-2.571061E+001	-6.834664E+001
799310000	-2.165170E+001	-1.275242E+002	1.074899E+000	3.721601E+001	1.069616E+000	3.844411E+001	-2.572530E+001	-6.861437E+001
799325000	-2.168643E+001	-1.276223E+002	1.087727E+000	3.725079E+001	1.062857E+000	3.845800E+001	-2.572423E+001	-6.842565E+001
799340000	-2.165579E+001	-1.267665E+002	1.053537E+000	3.736371E+001	1.035944E+000	3.849034E+001	-2.571303E+001	-6.845546E+001
799355000	-2.160433E+001	-1.274261E+002	1.068874E+000	3.732006E+001	1.076479E+000	3.851054E+001	-2.568057E+001	-6.853521E+001
799370000	-2.162703E+001	-1.274198E+002	1.062853E+000	3.736508E+001	1.072158E+000	3.859401E+001	-2.572906E+001	-6.843976E+001
799385000	-2.165184E+001	-1.272080E+002	1.087231E+000	3.742061E+001	1.040343E+000	3.854730E+001	-2.573366E+001	-6.834840E+001
799400000	-2.163704E+001	-1.269009E+002	1.054749E+000	3.739540E+001	1.053938E+000	3.865155E+001	-2.572855E+001	-6.860253E+001
799415000	-2.160474E+001	-1.272351E+002	1.062442E+000	3.753484E+001	1.072762E+000	3.859324E+001	-2.571413E+001	-6.827584E+001
799430000	-2.156832E+001	-1.273224E+002	1.081839E+000	3.753744E+001	1.034895E+000	3.879167E+001	-2.571808E+001	-6.829207E+001
799445000	-2.168112E+001	-1.269009E+002	1.070504E+000	3.748941E+001	1.054260E+000	3.878742E+001	-2.569151E+001	-6.809466E+001
799460000	-2.160298E+001	-1.270853E+002	1.055173E+000	3.756977E+001	1.063047E+000	3.878897E+001	-2.570217E+001	-6.828387E+001
799475000	-2.155330E+001	-1.271256E+002	1.081804E+000	3.756766E+001	1.056252E+000	3.880291E+001	-2.570811E+001	-6.841998E+001
799490000	-2.162472E+001	-1.271694E+002	1.064845E+000	3.769035E+001	1.073653E+000	3.882173E+001	-2.567656E+001	-6.800472E+001
799505000	-2.161148E+001	-1.274713E+002	1.077768E+000	3.761650E+001	1.072937E+000	3.882760E+001	-2.568916E+001	-6.822377E+001
799520000	-2.161243E+001	-1.269693E+002	1.056704E+000	3.773814E+001	1.034552E+000	3.885690E+001	-2.569259E+001	-6.812479E+001
799535000	-2.158493E+001	-1.270154E+002	1.081440E+000	3.773694E+001	1.037384E+000	3.891730E+001	-2.570765E+001	-6.810084E+001
799550000	-2.170423E+001	-1.270939E+002	1.075677E+000	3.770833E+001	1.041642E+000	3.894010E+001	-2.572646E+001	-6.814701E+001
799565000	-2.161360E+001	-1.271040E+002	1.080057E+000	3.775646E+001	1.052728E+000	3.893399E+001	-2.569639E+001	-6.827008E+001
799580000	-2.156477E+001	-1.271681E+002	1.087513E+000	3.774880E+001	1.042173E+000	3.901310E+001	-2.573804E+001	-6.822811E+001
799595000	-2.162519E+001	-1.273294E+002	1.113827E+000	3.783707E+001	1.034254E+000	3.909199E+001	-2.566705E+001	-6.801380E+001
799610000	-2.168369E+001	-1.266263E+002	1.053698E+000	3.786520E+001	1.043076E+000	3.913415E+001	-2.569355E+001	-6.790063E+001
799625000	-2.159661E+001	-1.269780E+002	1.068680E+000	3.798742E+001	1.062304E+000	3.913373E+001	-2.567099E+001	-6.807449E+001
799640000	-2.155556E+001	-1.271305E+002	1.090408E+000	3.798682E+001	1.082196E+000	3.914842E+001	-2.569043E+001	-6.823833E+001
799655000	-2.165001E+001	-1.269260E+002	1.058434E+000	3.808927E+001	1.038012E+000	3.924848E+001	-2.565345E+001	-6.799063E+001
799670000	-2.154782E+001	-1.270436E+002	1.100518E+000	3.801061E+001	1.084891E+000	3.924533E+001	-2.562086E+001	-6.794165E+001
799685000	-2.160437E+001	-1.267547E+002	1.059856E+000	3.807104E+001	1.056776E+000	3.924086E+001	-2.571105E+001	-6.800404E+001
799700000	-2.155292E+001	-1.267791E+002	1.070275E+000	3.808733E+001	1.045859E+000	3.930852E+001	-2.567910E+001	-6.788611E+001
799715000	-2.144220E+001	-1.271536E+002	1.113908E+000	3.816800E+001	1.054958E+000	3.927895E+001	-2.565212E+001	-6.772760E+001
799730000	-2.157475E+001	-1.269789E+002	1.071890E+000	3.816140E+001	1.071814E+000	3.940196E+001	-2.568580E+001	-6.800509E+001
799745000	-2.148345E+001	-1.269331E+002	1.084147E+000	3.834104E+001	1.041596E+000	3.941912E+001	-2.562080E+001	-6.770333E+001
799760000	-2.154935E+001	-1.268754E+002	1.071524E+000	3.826317E+001	1.087901E+000	3.946987E+001	-2.566447E+001	-6.782282E+001
799775000	-2.158089E+001	-1.268743E+002	1.089918E+000	3.829590E+001	1.050757E+000	3.948516E+001	-2.568171E+001	-6.756923E+001
799790000	-2.152197E+001	-1.268645E+002	1.066617E+000	3.833796E+001	1.063811E+000	3.948699E+001	-2.570474E+001	-6.759913E+001
799805000	-2.166286E+001	-1.268417E+002	1.078848E+000	3.820202E+001	1.070030E+000	3.944593E+001	-2.566939E+001	-6.763718E+001
799820000	-2.155034E+001	-1.272313E+002	1.087916E+000	3.829664E+001	1.066986E+000	3.957056E+001	-2.566127E+001	-6.790915E+001
799835000	-2.148487E+001	-1.273333E+002	1.087442E+000	3.839787E+001	1.091793E+000	3.959655E+001	-2.562278E+001	-6.756014E+001
799850000	-2.159416E+001	-1.266439E+002	1.056561E+000	3.839009E+001	1.062781E+000	3.961045E+001	-2.566667E+001	-6.774352E+001
799865000	-2.150724E+001	-1.269883E+002	1.110640E+000	3.829259E+001	1.078948E+000	3.973165E+001	-2.562096E+001	-6.771238E+001
799880000	-2.153949E+001	-1.267598E+002	1.056120E+000	3.857856E+001	1.084159E+000	3.970246E+001	-2.568419E+001	-6.781117E+001
799895000	-2.149768E+001	-1.268199E+002	1.082963E+000	3.864335E+001	1.073588E+000	3.978399E+001	-2.564372E+001	-6.735377E+001
799910000	-2.152697E+001	-1.266223E+002	1.059414E+000	3.864105E+001	1.064869E+000	3.974557E+001	-2.566088E+001	-6.737179E+001
799925000	-2.154287E+001	-1.272088E+002	1.090600E+000	3.854534E+001	1.078357E+000	3.979939E+001	-2.566563E+001	-6.766693E+001
799940000	-2.153785E+001	-1.269038E+002	1.090125E+000	3.871526E+001	1.038034E+000	3.978629E+001	-2.564589E+001	-6.712458E+001
799955000	-2.148773E+001	-1.266759E+002	1.085314E+000	3.867479E+001	1.058576E+000	3.986594E+001	-2.568852E+001	-6.755663E+001
799970000	-2.155016E+001	-1.269563E+002	1.089430E+000	3.872382E+001	1.049147E+000	3.995334E+001	-2.563092E+001	-6.762486E+001
799985000	-2.149345E+001	-1.266713E+002	1.082591E+000	3.881659E+001	1.054222E+000	3.996406E+001	-2.568537E+001	-6.736134E+001
800000000	-2.144487E+001	-1.265142E+002	1.075530E+000	3.882604E+001	1.058460E+000	3.990459E+001	-2.560566E+001	-6.736599E+001
800015000	-2.147700E+001	-1.265250E+002	1.047512E+000	3.893985E+001	1.082344E+000	4.006792E+001	-2.565552E+001	-6.744527E+001
800030000	-2.140243E+001	-1.269975E+002	1.071352E+000	3.893878E+001	1.077012E+000	4.009204E+001	-2.561153E+001	-6.730698E+001
800045000	-2.144960E+001	-1.267544E+002	1.095816E+000	3.886362E+001	1.068192E+000	4.006773E+001	-2.561060E+001	-6.713199E+001
800060000	-2.155070E+001	-1.265191E+002	1.070634E+000	3.891016E+001	1.042941E+000	4.006019E+001	-2.562893E+001	-6.734063E+001
800075000	-2.150516E+001	-1.265213E+002	1.073553E+000	3.892916E+001	1.075131E+000	4.019893E+001	-2.560723E+001	-6.730810E+001
800090000	-2.150724E+001	-1.266625E+002	1.101725E+000	3.880400E+001	1.054882E+000	4.015131E+001	-2.557969E+001	-6.730654E+001
800105000	-2.147700E+001	-1.262618E+002	1.070679E+000	3.913535E+001	1.040524E+000	4.018622E+001	-2.563635E+001	-6.703101E+001
800120000	-2.146700E+001	-1.263832E+002	1.074384E+000	3.902751E+001	1.053795E+000	4.034169E+001	-2.563212E+001	-6.730226E+001
800135000	-2.155607E+001	-1.266263E+002	1.067775E+000	3.906048E+001	1.055202E+000	4.026736E+001	-2.564212E+001	-6.702705E+001
800150000	-2.153272E+001	-1.261328E+002	1.052129E+000	3.924193E+001	1.043359E+000	4.042993E+001	-2.568790E+001	-6.699847E+001
800165000	-2.146716E+001	-1.271241E+002	1.098007E+000	3.904543E+001	1.048139E+000	4.039410E+001	-2.561192E+001	-6.697893E+001
800180000	-2.143542E+001	-1.263483E+002	1.060071E+000	3.932225E+001	1.055010E+000	4.043823E+001	-2.565525E+001	-6.707600E+001
800195000	-2.149169E+001	-1.266720E+002	1.079317E+000	3.923194E+001	1.072906E+000	4.046442E+001	-2.562448E+001	-6.711644E+001
800210000	-2.146872E+001	-1.263245E+002	1.069709E+000	3.931374E+001	1.045063E+000	4.049691E+001	-2.564863E+001	-6.700393E+001
800225000	-2.146837E+001	-1.263065E+002	1.075079E+000	3.934599E+001	1.046917E+000	4.055337E+001	-2.565430E+001	-6.693077E+001
800240000	-2.143464E+001	-1.264464E+002	1.076363E+000	3.938600E+001	1.071950E+000	4.062892E+001	-2.565952E+001	-6.688646E+001
800255000	-2.145781E+001	-1.261214E+002	1.075385E+000	3.942071E+001	1.042990E+000	4.058309E+001	-2.566068E+001	-6.701260E+001
800270000	-2.136730E+001	-1.261078E+002	1.073803E+000	3.949965E+001	1.054453E+000	4.061872E+001	-2.565909E+001	-6.675912E+001
800285000	-2.148344E+001	-1.265977E+002	1.093510E+000	3.946998E+001	1.058237E+000	4.063058E+001	-2.562985E+001	-6.671729E+001
800300000	-2.144476E+001	-1.265578E+002	1.088661E+000	3.950021E+001	1.079368E+000	4.075837E+001	-2.560978E+001	-6.672096E+001
800315000	-2.152670E+001	-1.263728E+002	1.060615E+000	3.943546E+001	1.067729E+000	4.069473E+001	-2.561093E+001	-6.689389E+001
800330000	-2.144910E+001	-1.266771E+002	1.090375E+000	3.963702E+001	1.058617E+000	4.061102E+001	-2.561817E+001	-6.703530E+001
800345000	-2.139614E+001	-1.266664E+002	1.094585E+000	3.950010E+001	1.083331E+000	4.082531E+001	-2.556610E+001	-6.692165E+001
800360000	-2.143012E+001	-1.262564E+002	1.061138E+000	3.963175E+001	1.067823E+000	4.081175E+001	-2.562466E+001	-6.693221E+001
800375000	-2.138584E+001	-1.262350E+002	1.090386E+000	3.964910E+001	1.066267E+000	4.092069E+001	-2.558947E+001	-6.654345E+001
800390000	-2.133222E+001	-1.261906E+002	1.061055E+000	3.972549E+001	1.068520E+000	4.100321E+001	-2.563271E+001	-6.674253E+001
800405000	-2.132254E+001	-1.260778E+002	1.093196E+000	3.976271E+001	1.071455E+000	4.100431E+001	-2.554072E+001	-6.662581E+001
800420000	-2.139157E+001	-1.261814E+002	1.071965E+000	3.976862E+001	1.065373E+000	4.104694E+001	-2.559171E+001	-6.673094E+001
800435000	-2.137257E+001	-1.261275E+002	1.063031E+000	3.979094E+001	1.061153E+000	4.101365E+001	-2.558552E+001	-6.675756E+001
800450000	-2.135191E+001	-1.263181E+002	1.073299E+000	3.985475E+001	1.047672E+000	4.102788E+001	-2.557571E+001	-6.682517E+001
800465000	-2.143160E+001	-1.262261E+002	1.096808E+000	3.987175E+001	1.054441E+000	4.111040E+001	-2.558343E+001	-6.645191E+001
800480000	-2.141187E+001	-1.261137E+002	1.085567E+000	3.995616E+001	1.073502E+000	4.114048E+001	-2.561602E+001	-6.681946E+001
800495000	-2.140506E+001	-1.262281E+002	1.074000E+000	3.990825E+001	1.042885E+000	4.114697E+001	-2.560782E+001	-6.653551E+001
800510000	-2.131978E+001	-1.256624E+002	1.050297E+000	4.000018E+001	1.059395E+000	4.110142E+001	-2.560015E+001	-6.627289E+001
800525000	-2.143363E+001	-1.261358E+002	1.089423E+000	3.995988E+001	1.065916E+000	4.128154E+001	-2.557992E+001	-6.655471E+001
800540000	-2.135896E+001	-1.258576E+002	1.061481E+000	4.005731E+001	1.065039E+000	4.128481E+001	-2.560239E+001	-6.657552E+001
800555000	-2.144245E+001	-1.258255E+002	1.059405E+000	4.004554E+001	1.048441E+000	4.128494E+001	-2.560227E+001	-6.644046E+001
800570000	-2.130965E+001	-1.257092E+002	1.077018E+000	4.013334E+001	1.054165E+000	4.129550E+001	-2.555632E+001	-6.621761E+001
800585000	-2.136706E+001	-1.256801E+002	1.067685E+000	4.029783E+001	1.057801E+000	4.143388E+001	-2.563701E+001	-6.639254E+001
800600000	-2.137501E+001	-1.260574E+002	1.060989E+000	4.017648E+001	1.076570E+000	4.122561E+001	-2.556971E+001	-6.627158E+001
800615000	-2.136861E+001	-1.256289E+002	1.059324E+000	4.020299E+001	1.046500E+000	4.135180E+001	-2.558108E+001	-6.644763E+001
800630000	-2.128504E+001	-1.259927E+002	1.063409E+000	4.036394E+001	1.052742E+000	4.147293E+001	-2.561167E+001	-6.630983E+001
800645000	-2.133396E+001	-1.263521E+002	1.073192E+000	4.022678E+001	1.097944E+000	4.147139E+001	-2.556232E+001	-6.639768E+001
800660000	-2.131608E+001	-1.258672E+002	1.061934E+000	4.034579E+001	1.053595E+000	4.153629E+001	-2.560204E+001	-6.643528E+001
800675000	-2.130560E+001	-1.261474E+002	1.121479E+000	4.026586E+001	1.074480E+000	4.156146E+001	-2.555042E+001	-6.637378E+001
800690000	-2.121670E+001	-1.263303E+002	1.087234E+000	4.044681E+001	1.072787E+000	4.167441E+001	-2.556901E+001	-6.598209E+001
800705000	-2.136346E+001	-1.259817E+002	1.071912E+000	4.044771E+001	1.056061E+000	4.165523E+001	-2.555985E+001	-6.625203E+001
800720000	-2.134776E+001	-1.258596E+002	1.042089E+000	4.045808E+001	1.055504E+000	4.172482E+001	-2.559767E+001	-6.619942E+001
800735000	-2.131830E+001	-1.261538E+002	1.090481E+000	4.048730E+001	1.067680E+000	4.173222E+001	-2.556495E+001	-6.612508E+001
800750000	-2.132635E+001	-1.255681E+002	1.071898E+000	4.054887E+001	1.038982E+000	4.184254E+001	-2.556403E+001	-6.605616E+001
800765000	-2.130840E+001	-1.253132E+002	1.075199E+000	4.064860E+001	1.051207E+000	4.180952E+001	-2.559346E+001	-6.619968E+001
800780000	-2.121252E+001	-1.258748E+002	1.069697E+000	4.071446E+001	1.097142E+000	4.186297E+001	-2.562167E+001	-6.598339E+001
800795000	-2.131298E+001	-1.262914E+002	1.100754E+000	4.064795E+001	1.066581E+000	4.192095E+001	-2.557107E+001	-6.594104E+001
800810000	-2.132132E+001	-1.257638E+002	1.061299E+000	4.068818E+001	1.081879E+000	4.191431E+001	-2.558931E+001	-6.609902E+001
800825000	-2.137188E+001	-1.255390E+002	1.060761E+000	4.064162E+001	1.055419E+000	4.193746E+001	-2.554163E+001	-6.603312E+001
800840000	-2.122606E+001	-1.259379E+002	1.081902E+000	4.070587E+001	1.039858E+000	4.198831E+001	-2.554767E+001	-6.596710E+001
