!Agilent Technologies,E5071B,MY42404614,A.06.51
!Date: Mon Aug 04 16:37:59 2014
!Data & Calibration Information:
!Freq	S11:SOLT2(ON)	S21:SOLT2(ON)	S12:SOLT2(ON)	S22:SOLT2(ON)
# Hz S dB R 50
798500000	-2.185117e+001	-1.277729e+002	1.059839e+000	3.531286e+001	1.068879e+000	3.656197e+001	-2.580103e+001	-6.979472e+001
798515000	-2.188628e+001	-1.282400e+002	1.080109e+000	3.525029e+001	1.073391e+000	3.658511e+001	-2.574266e+001	-6.993536e+001
798530000	-2.183989e+001	-1.284136e+002	1.093519e+000	3.548083e+001	1.044725e+000	3.661478e+001	-2.578119e+001	-6.964940e+001
798545000	-2.189710e+001	-1.281656e+002	1.064331e+000	3.550417e+001	1.061875e+000	3.660147e+001	-2.581932e+001	-6.992047e+001
798560000	-2.181610e+001	-1.281946e+002	1.089606e+000	3.552530e+001	1.074166e+000	3.672201e+001	-2.581477e+001	-6.969619e+001
798575000	-2.187669e+001	-1.277683e+002	1.045853e+000	3.543071e+001	1.043574e+000	3.675335e+001	-2.581224e+001	-6.966828e+001
798590000	-2.188256e+001	-1.280257e+002	1.077313e+000	3.554420e+001	1.028022e+000	3.676384e+001	-2.582272e+001	-6.960256e+001
798605000	-2.179524e+001	-1.280452e+002	1.055444e+000	3.565505e+001	1.048266e+000	3.680393e+001	-2.581968e+001	-6.975431e+001
798620000	-2.182120e+001	-1.277753e+002	1.057542e+000	3.555418e+001	1.046858e+000	3.676586e+001	-2.577440e+001	-6.961315e+001
798635000	-2.186737e+001	-1.281362e+002	1.092180e+000	3.554119e+001	1.047203e+000	3.690061e+001	-2.577205e+001	-6.967798e+001
798650000	-2.176584e+001	-1.282594e+002	1.090498e+000	3.566279e+001	1.081851e+000	3.685322e+001	-2.578760e+001	-6.973921e+001
798665000	-2.183654e+001	-1.277609e+002	1.060278e+000	3.580791e+001	1.018159e+000	3.698522e+001	-2.580945e+001	-6.964291e+001
798680000	-2.187119e+001	-1.278884e+002	1.077781e+000	3.565021e+001	1.030714e+000	3.696648e+001	-2.577618e+001	-6.974451e+001
798695000	-2.179123e+001	-1.277610e+002	1.078787e+000	3.574375e+001	1.050387e+000	3.701320e+001	-2.576927e+001	-6.958283e+001
798710000	-2.179665e+001	-1.278067e+002	1.063448e+000	3.587371e+001	1.076585e+000	3.701833e+001	-2.577729e+001	-6.964186e+001
798725000	-2.178506e+001	-1.281891e+002	1.080980e+000	3.574975e+001	1.061486e+000	3.702512e+001	-2.575890e+001	-6.974701e+001
798740000	-2.176800e+001	-1.276761e+002	1.081801e+000	3.589197e+001	1.039318e+000	3.711666e+001	-2.575851e+001	-6.969183e+001
798755000	-2.188316e+001	-1.278041e+002	1.053542e+000	3.588658e+001	1.058472e+000	3.719947e+001	-2.577048e+001	-6.945361e+001
798770000	-2.174778e+001	-1.284694e+002	1.114375e+000	3.599033e+001	1.045597e+000	3.724584e+001	-2.578419e+001	-6.913341e+001
798785000	-2.179547e+001	-1.281119e+002	1.075024e+000	3.598426e+001	1.066341e+000	3.710646e+001	-2.576980e+001	-6.942845e+001
798800000	-2.178229e+001	-1.278232e+002	1.075816e+000	3.604515e+001	1.068850e+000	3.721296e+001	-2.579014e+001	-6.937916e+001
798815000	-2.181768e+001	-1.275721e+002	1.081926e+000	3.603152e+001	1.045417e+000	3.726054e+001	-2.575344e+001	-6.920775e+001
798830000	-2.180818e+001	-1.278961e+002	1.068884e+000	3.619666e+001	1.067398e+000	3.724909e+001	-2.571958e+001	-6.937870e+001
798845000	-2.174271e+001	-1.280156e+002	1.070848e+000	3.601355e+001	1.066963e+000	3.739219e+001	-2.571566e+001	-6.930040e+001
798860000	-2.175883e+001	-1.279108e+002	1.094119e+000	3.605860e+001	1.052004e+000	3.737453e+001	-2.576831e+001	-6.933764e+001
798875000	-2.175826e+001	-1.280464e+002	1.060074e+000	3.616617e+001	1.051246e+000	3.743811e+001	-2.579138e+001	-6.920835e+001
798890000	-2.176211e+001	-1.274074e+002	1.065406e+000	3.626388e+001	1.050413e+000	3.738063e+001	-2.575577e+001	-6.912545e+001
798905000	-2.172872e+001	-1.276053e+002	1.084601e+000	3.631853e+001	1.029640e+000	3.737096e+001	-2.574611e+001	-6.919936e+001
798920000	-2.171586e+001	-1.279852e+002	1.107418e+000	3.631808e+001	1.051337e+000	3.747881e+001	-2.574785e+001	-6.922816e+001
798935000	-2.176824e+001	-1.274901e+002	1.063306e+000	3.637597e+001	1.075102e+000	3.752012e+001	-2.573779e+001	-6.925709e+001
798950000	-2.177428e+001	-1.275710e+002	1.061974e+000	3.630466e+001	1.032835e+000	3.756647e+001	-2.579502e+001	-6.939659e+001
798965000	-2.176845e+001	-1.281291e+002	1.092273e+000	3.635890e+001	1.094511e+000	3.769260e+001	-2.575794e+001	-6.917323e+001
798980000	-2.179274e+001	-1.277500e+002	1.071721e+000	3.628179e+001	1.055513e+000	3.768361e+001	-2.574518e+001	-6.912841e+001
798995000	-2.184040e+001	-1.275716e+002	1.079583e+000	3.632137e+001	1.021726e+000	3.766171e+001	-2.573798e+001	-6.903826e+001
799010000	-2.170246e+001	-1.275747e+002	1.076656e+000	3.648333e+001	1.064347e+000	3.772014e+001	-2.575467e+001	-6.915305e+001
799025000	-2.167288e+001	-1.278785e+002	1.109625e+000	3.657328e+001	1.077165e+000	3.774279e+001	-2.570920e+001	-6.882542e+001
799040000	-2.168911e+001	-1.277218e+002	1.081899e+000	3.668018e+001	1.060343e+000	3.784739e+001	-2.573711e+001	-6.900703e+001
799055000	-2.171816e+001	-1.276498e+002	1.072238e+000	3.671941e+001	1.052209e+000	3.776054e+001	-2.573874e+001	-6.903173e+001
799070000	-2.172975e+001	-1.275300e+002	1.061787e+000	3.670973e+001	1.066451e+000	3.787377e+001	-2.577306e+001	-6.908572e+001
799085000	-2.174199e+001	-1.273905e+002	1.065526e+000	3.671791e+001	1.062707e+000	3.791193e+001	-2.576087e+001	-6.866501e+001
799100000	-2.167641e+001	-1.280543e+002	1.074153e+000	3.673146e+001	1.062316e+000	3.792237e+001	-2.573496e+001	-6.893152e+001
799115000	-2.170747e+001	-1.275110e+002	1.061703e+000	3.685254e+001	1.067157e+000	3.792572e+001	-2.577981e+001	-6.863058e+001
799130000	-2.167480e+001	-1.275323e+002	1.095901e+000	3.682348e+001	1.065490e+000	3.802084e+001	-2.573981e+001	-6.885783e+001
799145000	-2.176692e+001	-1.275826e+002	1.091121e+000	3.670156e+001	1.050809e+000	3.799346e+001	-2.571028e+001	-6.872172e+001
799160000	-2.168695e+001	-1.274798e+002	1.088520e+000	3.691250e+001	1.060481e+000	3.806909e+001	-2.572995e+001	-6.851572e+001
799175000	-2.177421e+001	-1.271164e+002	1.058632e+000	3.686664e+001	1.056342e+000	3.814994e+001	-2.575999e+001	-6.903634e+001
799190000	-2.178429e+001	-1.275890e+002	1.080531e+000	3.690520e+001	1.034645e+000	3.811943e+001	-2.571930e+001	-6.857867e+001
799205000	-2.172614e+001	-1.270991e+002	1.064212e+000	3.680247e+001	1.054951e+000	3.816769e+001	-2.574226e+001	-6.891278e+001
799220000	-2.164362e+001	-1.272097e+002	1.076245e+000	3.704718e+001	1.034125e+000	3.823634e+001	-2.573466e+001	-6.872264e+001
799235000	-2.171208e+001	-1.278473e+002	1.088029e+000	3.696360e+001	1.080970e+000	3.829272e+001	-2.570967e+001	-6.870653e+001
799250000	-2.167862e+001	-1.277957e+002	1.077733e+000	3.701034e+001	1.071231e+000	3.830466e+001	-2.573784e+001	-6.880457e+001
799265000	-2.164955e+001	-1.275448e+002	1.072185e+000	3.707797e+001	1.075784e+000	3.835161e+001	-2.573637e+001	-6.856607e+001
799280000	-2.171016e+001	-1.273615e+002	1.077884e+000	3.724198e+001	1.043158e+000	3.832121e+001	-2.573490e+001	-6.864238e+001
799295000	-2.159907e+001	-1.276287e+002	1.104384e+000	3.715342e+001	1.063211e+000	3.834462e+001	-2.571061e+001	-6.834664e+001
799310000	-2.165170e+001	-1.275242e+002	1.074899e+000	3.721601e+001	1.069616e+000	3.844411e+001	-2.572530e+001	-6.861437e+001
799325000	-2.168643e+001	-1.276223e+002	1.087727e+000	3.725079e+001	1.062857e+000	3.845800e+001	-2.572423e+001	-6.842565e+001
799340000	-2.165579e+001	-1.267665e+002	1.053537e+000	3.736371e+001	1.035944e+000	3.849034e+001	-2.571303e+001	-6.845546e+001
799355000	-2.160433e+001	-1.274261e+002	1.068874e+000	3.732006e+001	1.076479e+000	3.851054e+001	-2.568057e+001	-6.853521e+001
799370000	-2.162703e+001	-1.274198e+002	1.062853e+000	3.736508e+001	1.072158e+000	3.859401e+001	-2.572906e+001	-6.843976e+001
799385000	-2.165184e+001	-1.272080e+002	1.087231e+000	3.742061e+001	1.040343e+000	3.854730e+001	-2.573366e+001	-6.834840e+001
799400000	-2.163704e+001	-1.269009e+002	1.054749e+000	3.739540e+001	1.053938e+000	3.865155e+001	-2.572855e+001	-6.860253e+001
799415000	-2.160474e+001	-1.272351e+002	1.062442e+000	3.753484e+001	1.072762e+000	3.859324e+001	-2.571413e+001	-6.827584e+001
799430000	-2.156832e+001	-1.273224e+002	1.081839e+000	3.753744e+001	1.034895e+000	3.879167e+001	-2.571808e+001	-6.829207e+001
799445000	-2.168112e+001	-1.269009e+002	1.070504e+000	3.748941e+001	1.054260e+000	3.878742e+001	-2.569151e+001	-6.809466e+001
799460000	-2.160298e+001	-1.270853e+002	1.055173e+000	3.756977e+001	1.063047e+000	3.878897e+001	-2.570217e+001	-6.828387e+001
799475000	-2.155330e+001	-1.271256e+002	1.081804e+000	3.756766e+001	1.056252e+000	3.880291e+001	-2.570811e+001	-6.841998e+001
799490000	-2.162472e+001	-1.271694e+002	1.064845e+000	3.769035e+001	1.073653e+000	3.882173e+001	-2.567656e+001	-6.800472e+001
799505000	-2.161148e+001	-1.274713e+002	1.077768e+000	3.761650e+001	1.072937e+000	3.882760e+001	-2.568916e+001	-6.822377e+001
799520000	-2.161243e+001	-1.269693e+002	1.056704e+000	3.773814e+001	1.034552e+000	3.885690e+001	-2.569259e+001	-6.812479e+001
799535000	-2.158493e+001	-1.270154e+002	1.081440e+000	3.773694e+001	1.037384e+000	3.891730e+001	-2.570765e+001	-6.810084e+001
799550000	-2.170423e+001	-1.270939e+002	1.075677e+000	3.770833e+001	1.041642e+000	3.894010e+001	-2.572646e+001	-6.814701e+001
799565000	-2.161360e+001	-1.271040e+002	1.080057e+000	3.775646e+001	1.052728e+000	3.893399e+001	-2.569639e+001	-6.827008e+001
799580000	-2.156477e+001	-1.271681e+002	1.087513e+000	3.774880e+001	1.042173e+000	3.901310e+001	-2.573804e+001	-6.822811e+001
799595000	-2.162519e+001	-1.273294e+002	1.113827e+000	3.783707e+001	1.034254e+000	3.909199e+001	-2.566705e+001	-6.801380e+001
799610000	-2.168369e+001	-1.266263e+002	1.053698e+000	3.786520e+001	1.043076e+000	3.913415e+001	-2.569355e+001	-6.790063e+001
799625000	-2.159661e+001	-1.269780e+002	1.068680e+000	3.798742e+001	1.062304e+000	3.913373e+001	-2.567099e+001	-6.807449e+001
799640000	-2.155556e+001	-1.271305e+002	1.090408e+000	3.798682e+001	1.082196e+000	3.914842e+001	-2.569043e+001	-6.823833e+001
799655000	-2.165001e+001	-1.269260e+002	1.058434e+000	3.808927e+001	1.038012e+000	3.924848e+001	-2.565345e+001	-6.799063e+001
799670000	-2.154782e+001	-1.270436e+002	1.100518e+000	3.801061e+001	1.084891e+000	3.924533e+001	-2.562086e+001	-6.794165e+001
799685000	-2.160437e+001	-1.267547e+002	1.059856e+000	3.807104e+001	1.056776e+000	3.924086e+001	-2.571105e+001	-6.800404e+001
799700000	-2.155292e+001	-1.267791e+002	1.070275e+000	3.808733e+001	1.045859e+000	3.930852e+001	-2.567910e+001	-6.788611e+001
799715000	-2.144220e+001	-1.271536e+002	1.113908e+000	3.816800e+001	1.054958e+000	3.927895e+001	-2.565212e+001	-6.772760e+001
799730000	-2.157475e+001	-1.269789e+002	1.071890e+000	3.816140e+001	1.071814e+000	3.940196e+001	-2.568580e+001	-6.800509e+001
799745000	-2.148345e+001	-1.269331e+002	1.084147e+000	3.834104e+001	1.041596e+000	3.941912e+001	-2.562080e+001	-6.770333e+001
799760000	-2.154935e+001	-1.268754e+002	1.071524e+000	3.826317e+001	1.087901e+000	3.946987e+001	-2.566447e+001	-6.782282e+001
799775000	-2.158089e+001	-1.268743e+002	1.089918e+000	3.829590e+001	1.050757e+000	3.948516e+001	-2.568171e+001	-6.756923e+001
799790000	-2.152197e+001	-1.268645e+002	1.066617e+000	3.833796e+001	1.063811e+000	3.948699e+001	-2.570474e+001	-6.759913e+001
799805000	-2.166286e+001	-1.268417e+002	1.078848e+000	3.820202e+001	1.070030e+000	3.944593e+001	-2.566939e+001	-6.763718e+001
799820000	-2.155034e+001	-1.272313e+002	1.087916e+000	3.829664e+001	1.066986e+000	3.957056e+001	-2.566127e+001	-6.790915e+001
799835000	-2.148487e+001	-1.273333e+002	1.087442e+000	3.839787e+001	1.091793e+000	3.959655e+001	-2.562278e+001	-6.756014e+001
799850000	-2.159416e+001	-1.266439e+002	1.056561e+000	3.839009e+001	1.062781e+000	3.961045e+001	-2.566667e+001	-6.774352e+001
799865000	-2.150724e+001	-1.269883e+002	1.110640e+000	3.829259e+001	1.078948e+000	3.973165e+001	-2.562096e+001	-6.771238e+001
799880000	-2.153949e+001	-1.267598e+002	1.056120e+000	3.857856e+001	1.084159e+000	3.970246e+001	-2.568419e+001	-6.781117e+001
799895000	-2.149768e+001	-1.268199e+002	1.082963e+000	3.864335e+001	1.073588e+000	3.978399e+001	-2.564372e+001	-6.735377e+001
799910000	-2.152697e+001	-1.266223e+002	1.059414e+000	3.864105e+001	1.064869e+000	3.974557e+001	-2.566088e+001	-6.737179e+001
799925000	-2.154287e+001	-1.272088e+002	1.090600e+000	3.854534e+001	1.078357e+000	3.979939e+001	-2.566563e+001	-6.766693e+001
799940000	-2.153785e+001	-1.269038e+002	1.090125e+000	3.871526e+001	1.038034e+000	3.978629e+001	-2.564589e+001	-6.712458e+001
799955000	-2.148773e+001	-1.266759e+002	1.085314e+000	3.867479e+001	1.058576e+000	3.986594e+001	-2.568852e+001	-6.755663e+001
799970000	-2.155016e+001	-1.269563e+002	1.089430e+000	3.872382e+001	1.049147e+000	3.995334e+001	-2.563092e+001	-6.762486e+001
799985000	-2.149345e+001	-1.266713e+002	1.082591e+000	3.881659e+001	1.054222e+000	3.996406e+001	-2.568537e+001	-6.736134e+001
800000000	-2.144487e+001	-1.265142e+002	1.075530e+000	3.882604e+001	1.058460e+000	3.990459e+001	-2.560566e+001	-6.736599e+001
800015000	-2.147700e+001	-1.265250e+002	1.047512e+000	3.893985e+001	1.082344e+000	4.006792e+001	-2.565552e+001	-6.744527e+001
800030000	-2.140243e+001	-1.269975e+002	1.071352e+000	3.893878e+001	1.077012e+000	4.009204e+001	-2.561153e+001	-6.730698e+001
800045000	-2.144960e+001	-1.267544e+002	1.095816e+000	3.886362e+001	1.068192e+000	4.006773e+001	-2.561060e+001	-6.713199e+001
800060000	-2.155070e+001	-1.265191e+002	1.070634e+000	3.891016e+001	1.042941e+000	4.006019e+001	-2.562893e+001	-6.734063e+001
800075000	-2.150516e+001	-1.265213e+002	1.073553e+000	3.892916e+001	1.075131e+000	4.019893e+001	-2.560723e+001	-6.730810e+001
800090000	-2.150724e+001	-1.266625e+002	1.101725e+000	3.880400e+001	1.054882e+000	4.015131e+001	-2.557969e+001	-6.730654e+001
800105000	-2.147700e+001	-1.262618e+002	1.070679e+000	3.913535e+001	1.040524e+000	4.018622e+001	-2.563635e+001	-6.703101e+001
800120000	-2.146700e+001	-1.263832e+002	1.074384e+000	3.902751e+001	1.053795e+000	4.034169e+001	-2.563212e+001	-6.730226e+001
800135000	-2.155607e+001	-1.266263e+002	1.067775e+000	3.906048e+001	1.055202e+000	4.026736e+001	-2.564212e+001	-6.702705e+001
800150000	-2.153272e+001	-1.261328e+002	1.052129e+000	3.924193e+001	1.043359e+000	4.042993e+001	-2.568790e+001	-6.699847e+001
800165000	-2.146716e+001	-1.271241e+002	1.098007e+000	3.904543e+001	1.048139e+000	4.039410e+001	-2.561192e+001	-6.697893e+001
800180000	-2.143542e+001	-1.263483e+002	1.060071e+000	3.932225e+001	1.055010e+000	4.043823e+001	-2.565525e+001	-6.707600e+001
800195000	-2.149169e+001	-1.266720e+002	1.079317e+000	3.923194e+001	1.072906e+000	4.046442e+001	-2.562448e+001	-6.711644e+001
800210000	-2.146872e+001	-1.263245e+002	1.069709e+000	3.931374e+001	1.045063e+000	4.049691e+001	-2.564863e+001	-6.700393e+001
800225000	-2.146837e+001	-1.263065e+002	1.075079e+000	3.934599e+001	1.046917e+000	4.055337e+001	-2.565430e+001	-6.693077e+001
800240000	-2.143464e+001	-1.264464e+002	1.076363e+000	3.938600e+001	1.071950e+000	4.062892e+001	-2.565952e+001	-6.688646e+001
800255000	-2.145781e+001	-1.261214e+002	1.075385e+000	3.942071e+001	1.042990e+000	4.058309e+001	-2.566068e+001	-6.701260e+001
800270000	-2.136730e+001	-1.261078e+002	1.073803e+000	3.949965e+001	1.054453e+000	4.061872e+001	-2.565909e+001	-6.675912e+001
800285000	-2.148344e+001	-1.265977e+002	1.093510e+000	3.946998e+001	1.058237e+000	4.063058e+001	-2.562985e+001	-6.671729e+001
800300000	-2.144476e+001	-1.265578e+002	1.088661e+000	3.950021e+001	1.079368e+000	4.075837e+001	-2.560978e+001	-6.672096e+001
800315000	-2.152670e+001	-1.263728e+002	1.060615e+000	3.943546e+001	1.067729e+000	4.069473e+001	-2.561093e+001	-6.689389e+001
800330000	-2.144910e+001	-1.266771e+002	1.090375e+000	3.963702e+001	1.058617e+000	4.061102e+001	-2.561817e+001	-6.703530e+001
800345000	-2.139614e+001	-1.266664e+002	1.094585e+000	3.950010e+001	1.083331e+000	4.082531e+001	-2.556610e+001	-6.692165e+001
800360000	-2.143012e+001	-1.262564e+002	1.061138e+000	3.963175e+001	1.067823e+000	4.081175e+001	-2.562466e+001	-6.693221e+001
800375000	-2.138584e+001	-1.262350e+002	1.090386e+000	3.964910e+001	1.066267e+000	4.092069e+001	-2.558947e+001	-6.654345e+001
800390000	-2.133222e+001	-1.261906e+002	1.061055e+000	3.972549e+001	1.068520e+000	4.100321e+001	-2.563271e+001	-6.674253e+001
800405000	-2.132254e+001	-1.260778e+002	1.093196e+000	3.976271e+001	1.071455e+000	4.100431e+001	-2.554072e+001	-6.662581e+001
800420000	-2.139157e+001	-1.261814e+002	1.071965e+000	3.976862e+001	1.065373e+000	4.104694e+001	-2.559171e+001	-6.673094e+001
800435000	-2.137257e+001	-1.261275e+002	1.063031e+000	3.979094e+001	1.061153e+000	4.101365e+001	-2.558552e+001	-6.675756e+001
800450000	-2.135191e+001	-1.263181e+002	1.073299e+000	3.985475e+001	1.047672e+000	4.102788e+001	-2.557571e+001	-6.682517e+001
800465000	-2.143160e+001	-1.262261e+002	1.096808e+000	3.987175e+001	1.054441e+000	4.111040e+001	-2.558343e+001	-6.645191e+001
800480000	-2.141187e+001	-1.261137e+002	1.085567e+000	3.995616e+001	1.073502e+000	4.114048e+001	-2.561602e+001	-6.681946e+001
800495000	-2.140506e+001	-1.262281e+002	1.074000e+000	3.990825e+001	1.042885e+000	4.114697e+001	-2.560782e+001	-6.653551e+001
800510000	-2.131978e+001	-1.256624e+002	1.050297e+000	4.000018e+001	1.059395e+000	4.110142e+001	-2.560015e+001	-6.627289e+001
800525000	-2.143363e+001	-1.261358e+002	1.089423e+000	3.995988e+001	1.065916e+000	4.128154e+001	-2.557992e+001	-6.655471e+001
800540000	-2.135896e+001	-1.258576e+002	1.061481e+000	4.005731e+001	1.065039e+000	4.128481e+001	-2.560239e+001	-6.657552e+001
800555000	-2.144245e+001	-1.258255e+002	1.059405e+000	4.004554e+001	1.048441e+000	4.128494e+001	-2.560227e+001	-6.644046e+001
800570000	-2.130965e+001	-1.257092e+002	1.077018e+000	4.013334e+001	1.054165e+000	4.129550e+001	-2.555632e+001	-6.621761e+001
800585000	-2.136706e+001	-1.256801e+002	1.067685e+000	4.029783e+001	1.057801e+000	4.143388e+001	-2.563701e+001	-6.639254e+001
800600000	-2.137501e+001	-1.260574e+002	1.060989e+000	4.017648e+001	1.076570e+000	4.122561e+001	-2.556971e+001	-6.627158e+001
800615000	-2.136861e+001	-1.256289e+002	1.059324e+000	4.020299e+001	1.046500e+000	4.135180e+001	-2.558108e+001	-6.644763e+001
800630000	-2.128504e+001	-1.259927e+002	1.063409e+000	4.036394e+001	1.052742e+000	4.147293e+001	-2.561167e+001	-6.630983e+001
800645000	-2.133396e+001	-1.263521e+002	1.073192e+000	4.022678e+001	1.097944e+000	4.147139e+001	-2.556232e+001	-6.639768e+001
800660000	-2.131608e+001	-1.258672e+002	1.061934e+000	4.034579e+001	1.053595e+000	4.153629e+001	-2.560204e+001	-6.643528e+001
800675000	-2.130560e+001	-1.261474e+002	1.121479e+000	4.026586e+001	1.074480e+000	4.156146e+001	-2.555042e+001	-6.637378e+001
800690000	-2.121670e+001	-1.263303e+002	1.087234e+000	4.044681e+001	1.072787e+000	4.167441e+001	-2.556901e+001	-6.598209e+001
800705000	-2.136346e+001	-1.259817e+002	1.071912e+000	4.044771e+001	1.056061e+000	4.165523e+001	-2.555985e+001	-6.625203e+001
800720000	-2.134776e+001	-1.258596e+002	1.042089e+000	4.045808e+001	1.055504e+000	4.172482e+001	-2.559767e+001	-6.619942e+001
800735000	-2.131830e+001	-1.261538e+002	1.090481e+000	4.048730e+001	1.067680e+000	4.173222e+001	-2.556495e+001	-6.612508e+001
800750000	-2.132635e+001	-1.255681e+002	1.071898e+000	4.054887e+001	1.038982e+000	4.184254e+001	-2.556403e+001	-6.605616e+001
800765000	-2.130840e+001	-1.253132e+002	1.075199e+000	4.064860e+001	1.051207e+000	4.180952e+001	-2.559346e+001	-6.619968e+001
800780000	-2.121252e+001	-1.258748e+002	1.069697e+000	4.071446e+001	1.097142e+000	4.186297e+001	-2.562167e+001	-6.598339e+001
800795000	-2.131298e+001	-1.262914e+002	1.100754e+000	4.064795e+001	1.066581e+000	4.192095e+001	-2.557107e+001	-6.594104e+001
800810000	-2.132132e+001	-1.257638e+002	1.061299e+000	4.068818e+001	1.081879e+000	4.191431e+001	-2.558931e+001	-6.609902e+001
800825000	-2.137188e+001	-1.255390e+002	1.060761e+000	4.064162e+001	1.055419e+000	4.193746e+001	-2.554163e+001	-6.603312e+001
800840000	-2.122606e+001	-1.259379e+002	1.081902e+000	4.070587e+001	1.039858e+000	4.198831e+001	-2.554767e+001	-6.596710e+001
