#6026003!Agilent Technologies,E5071B,MY42404614,A.06.51
!Date: Thu Jul 31 15:18:06 2014
!Data & Calibration Information:
!Freq	S11:SOLT2(ON)	S21:SOLT2(ON)	S12:SOLT2(ON)	S22:SOLT2(ON)
# Hz S dB R 50
4000000000	-3.644560e+001	-6.298539e+001	-1.595558e-001	-2.829229e-002	-1.909825e-001	2.051607e-001	-3.432156e+001	-4.708111e+001
4010000000	-3.437424e+001	-8.516895e+001	-1.382003e-001	-1.922543e-002	-1.625682e-001	3.758700e-001	-3.353100e+001	-4.565454e+001
4020000000	-3.581990e+001	-9.721659e+001	-1.931483e-001	1.249728e-001	-2.302538e-001	4.075333e-001	-3.387632e+001	-5.555784e+001
4030000000	-3.720603e+001	-1.168767e+002	-1.076063e-001	1.070190e-001	-2.229647e-001	6.531410e-001	-3.460883e+001	-6.488209e+001
4040000000	-3.640689e+001	-1.535617e+002	-3.448065e-002	3.417220e-001	-1.964813e-001	6.002885e-001	-3.535429e+001	-5.324121e+001
4050000000	-3.547071e+001	1.650563e+002	-9.771457e-002	-2.800373e-003	-2.392729e-001	-1.429269e-002	-3.476032e+001	-5.244201e+001
4060000000	-3.593702e+001	1.497936e+002	-1.062975e-001	6.745810e-002	-2.286239e-001	5.261489e-001	-3.365019e+001	-6.126635e+001
4070000000	-3.426578e+001	1.341597e+002	-3.342031e-002	-1.037505e-001	-1.896354e-001	4.806321e-001	-3.472602e+001	-6.472878e+001
4080000000	-3.494811e+001	1.273850e+002	-8.422388e-002	2.687567e-001	-2.355902e-001	6.162628e-001	-3.244872e+001	-6.953603e+001
4090000000	-3.843013e+001	9.208649e+001	-1.232789e-001	-6.499010e-002	-2.510712e-001	4.671779e-001	-3.421415e+001	-4.991940e+001
4100000000	-3.494575e+001	7.211186e+001	-1.025804e-001	-4.644379e-002	-1.795659e-001	4.154889e-001	-3.471150e+001	-5.218356e+001
4110000000	-3.557170e+001	4.106234e+001	-1.184568e-001	-2.120852e-001	-2.880445e-001	6.037165e-001	-3.414441e+001	-5.997337e+001
4120000000	-3.715991e+001	3.053526e+001	-1.129570e-001	2.484317e-001	-1.896890e-001	3.710964e-001	-3.549659e+001	-7.958863e+001
4130000000	-3.620179e+001	6.200527e+000	-8.057814e-002	-4.037913e-001	-1.735696e-001	7.440935e-001	-3.429869e+001	-7.397561e+001
4140000000	-3.511272e+001	-1.666927e+001	-1.595628e-001	3.054259e-001	-1.848124e-001	4.973191e-001	-3.582788e+001	-7.934143e+001
4150000000	-3.574470e+001	-4.807907e+001	-1.272450e-001	2.517050e-001	-1.543182e-001	8.060130e-001	-3.440093e+001	-8.434771e+001
4160000000	-3.634642e+001	-6.454787e+001	-1.140202e-001	3.135226e-001	-2.352297e-001	2.044227e-002	-3.533925e+001	-6.994033e+001
4170000000	-3.554243e+001	-8.203231e+001	-1.782131e-001	3.925359e-001	-1.550988e-001	3.582688e-001	-3.519204e+001	-7.350651e+001
4180000000	-3.757681e+001	-1.027111e+002	-1.552069e-001	4.363614e-001	-2.671485e-001	8.695068e-001	-3.515958e+001	-7.084083e+001
4190000000	-3.694553e+001	-1.298597e+002	-1.126912e-001	6.657412e-002	-1.711795e-001	9.877810e-001	-3.432711e+001	-7.664442e+001
4200000000	-3.421271e+001	-1.603072e+002	-8.549090e-002	3.528079e-001	-1.298766e-001	3.326773e-001	-3.528235e+001	-7.211007e+001
4210000000	-3.442281e+001	1.766967e+002	-3.904104e-002	7.711112e-001	-1.341162e-001	3.141232e-001	-3.541892e+001	-7.685812e+001
4220000000	-3.714946e+001	1.567406e+002	-8.091373e-002	2.050768e-001	-1.886497e-001	8.166155e-001	-3.417663e+001	-7.704633e+001
4230000000	-3.455503e+001	1.549810e+002	-6.591364e-002	3.870024e-001	-1.153670e-001	8.613563e-001	-3.561125e+001	-8.565634e+001
4240000000	-3.724083e+001	1.136606e+002	-1.669466e-001	4.880468e-001	-1.864294e-001	5.618140e-001	-3.430116e+001	-9.360462e+001
4250000000	-3.380196e+001	1.132433e+002	-6.969052e-002	-1.069120e-001	-1.669353e-001	6.083615e-001	-3.727971e+001	-9.825197e+001
4260000000	-3.503596e+001	9.429191e+001	-6.576180e-002	7.327943e-002	-1.044906e-001	9.146024e-001	-3.463040e+001	-7.739641e+001
4270000000	-3.456396e+001	5.507722e+001	-1.608171e-001	2.902509e-001	-8.664716e-002	1.798272e-001	-3.503812e+001	-8.828322e+001
4280000000	-3.701906e+001	4.111575e+001	-9.770115e-002	3.386424e-001	-1.991961e-001	1.167962e+000	-3.458671e+001	-9.887282e+001
4290000000	-4.025701e+001	2.101257e+001	-1.314812e-001	1.123653e-001	-1.665586e-001	4.598188e-001	-3.534728e+001	-9.003552e+001
4300000000	-3.578228e+001	-4.869273e+000	-1.513811e-001	3.799575e-001	-1.953600e-001	1.259600e+000	-3.615419e+001	-9.353670e+001
4310000000	-4.035131e+001	-3.438692e+001	-1.271946e-001	4.635789e-001	-1.249446e-001	1.007393e+000	-3.532588e+001	-1.033286e+002
4320000000	-3.872918e+001	-8.572780e+001	-1.142045e-001	1.195480e-001	-1.616091e-001	7.272201e-001	-3.524239e+001	-9.211128e+001
4330000000	-3.382329e+001	-7.846215e+001	-7.807978e-002	8.985789e-001	-8.089202e-002	1.097271e+000	-3.373220e+001	-9.645844e+001
4340000000	-3.496993e+001	-1.051495e+002	-1.191337e-001	5.663276e-001	-1.274861e-001	1.390250e+000	-3.745695e+001	-1.054940e+002
4350000000	-3.510085e+001	-1.046197e+002	-8.964545e-002	7.269126e-001	-2.134201e-001	6.512380e-001	-3.624901e+001	-9.397991e+001
4360000000	-3.395567e+001	-1.330192e+002	-6.247256e-002	8.747004e-001	-1.309742e-001	5.741275e-001	-3.330359e+001	-1.012209e+002
4370000000	-3.423477e+001	-1.428657e+002	-2.522767e-002	2.234049e-001	-1.209825e-001	1.036837e+000	-3.544544e+001	-1.018768e+002
4380000000	-3.297831e+001	-1.721480e+002	-9.096760e-002	6.205518e-002	-7.623410e-002	7.585393e-001	-3.683717e+001	-9.166695e+001
4390000000	-3.572691e+001	1.646520e+002	-6.312325e-002	4.214119e-001	-1.686580e-001	7.846127e-001	-3.711601e+001	-9.686035e+001
4400000000	-3.923405e+001	1.606228e+002	-1.485771e-002	2.960400e-003	-1.683068e-001	1.261075e+000	-3.676797e+001	-1.192214e+002
4410000000	-3.797409e+001	1.274016e+002	-1.022818e-001	3.385323e-001	-1.314113e-001	4.205952e-001	-3.169724e+001	-9.988889e+001
4420000000	-3.737630e+001	1.361330e+002	-9.453663e-002	2.860825e-001	-8.150742e-002	1.252361e+000	-3.525747e+001	-1.099111e+002
4430000000	-4.202107e+001	6.320289e+001	-1.130481e-001	-2.849833e-001	-1.410374e-001	9.960631e-001	-3.708210e+001	-1.033740e+002
4440000000	-3.618020e+001	5.606518e+001	-4.723380e-002	6.195897e-001	-1.278540e-001	3.603997e-001	-3.411714e+001	-1.061317e+002
4450000000	-3.830474e+001	1.070433e+001	-5.875534e-002	-1.807043e-001	-1.274651e-001	8.808983e-001	-3.468041e+001	-1.031785e+002
4460000000	-3.367810e+001	3.817827e+000	-1.105769e-002	-1.002626e-001	-1.418975e-001	7.897315e-001	-3.286913e+001	-1.134785e+002
4470000000	-3.829534e+001	-6.956890e+000	-1.183397e-001	4.609454e-001	-9.292493e-002	7.803531e-001	-3.465828e+001	-9.308508e+001
4480000000	-3.578157e+001	-3.374960e+001	-6.973679e-002	6.435211e-001	-1.946132e-001	1.972413e-001	-3.374405e+001	-1.222271e+002
4490000000	-3.350875e+001	-6.077800e+001	-1.031492e-001	7.414779e-001	-6.110162e-002	6.695996e-001	-3.586780e+001	-9.823601e+001
4500000000	-3.477521e+001	-8.774153e+001	-1.121353e-001	9.447796e-001	-4.382316e-002	1.133294e+000	-3.522699e+001	-8.786835e+001
4510000000	-3.600808e+001	-8.551281e+001	-1.204244e-001	4.947119e-001	-9.687736e-002	1.137251e+000	-3.617157e+001	-8.860602e+001
4520000000	-3.580963e+001	-1.041971e+002	-2.072853e-002	9.591224e-001	-1.420212e-001	1.247617e+000	-3.469407e+001	-1.203008e+002
4530000000	-3.522843e+001	-1.334689e+002	-4.119016e-002	1.507869e-001	-6.931719e-002	1.588892e+000	-3.726124e+001	-1.186524e+002
4540000000	-3.638205e+001	-1.552421e+002	-5.248768e-002	7.929555e-001	-1.355404e-001	6.594377e-001	-3.265221e+001	-1.078231e+002
4550000000	-3.628476e+001	-1.633211e+002	-4.109091e-002	5.484087e-001	-7.901076e-002	1.152275e+000	-3.420476e+001	-1.108078e+002
4560000000	-3.637901e+001	1.744805e+002	-6.004657e-002	5.549172e-001	-8.350866e-002	1.382504e+000	-3.533016e+001	-1.051945e+002
4570000000	-3.615794e+001	1.604692e+002	-1.335747e-001	4.948158e-001	-1.034507e-001	6.836210e-001	-3.330165e+001	-9.742046e+001
4580000000	-3.674687e+001	1.070488e+002	-4.190412e-002	-5.920008e-002	-1.474635e-001	1.060486e+000	-3.380955e+001	-1.078719e+002
4590000000	-3.802805e+001	9.543245e+001	-2.807137e-002	3.729752e-001	-1.649193e-001	1.251342e+000	-3.371097e+001	-1.045042e+002
4600000000	-3.741746e+001	5.871090e+001	-5.962647e-002	4.330547e-001	-1.623059e-001	7.168359e-001	-3.446009e+001	-1.064137e+002
4610000000	-3.971497e+001	3.828805e+001	-7.353881e-002	4.632715e-001	-1.088351e-001	7.532420e-001	-3.519684e+001	-9.383590e+001
4620000000	-3.647178e+001	3.175088e+001	-6.860697e-002	6.578696e-001	-1.161737e-001	1.363865e+000	-3.546273e+001	-1.165157e+002
4630000000	-3.704573e+001	-6.547189e+000	-1.202910e-001	4.527844e-001	-1.446158e-001	1.302421e+000	-3.494874e+001	-1.210032e+002
4640000000	-3.655097e+001	-1.596981e+001	-9.599749e-002	7.352964e-001	-4.459827e-002	1.161807e+000	-3.452569e+001	-1.103678e+002
4650000000	-3.727646e+001	-5.426217e+001	-9.558124e-002	1.542443e+000	-1.921191e-001	7.354305e-001	-3.376853e+001	-1.104777e+002
4660000000	-3.607067e+001	-6.926024e+001	-1.019817e-001	9.170279e-001	-8.193696e-002	1.461162e+000	-3.471967e+001	-1.049013e+002
4670000000	-3.610401e+001	-8.309863e+001	-9.359036e-002	1.157538e+000	-1.495112e-001	9.948869e-001	-3.345860e+001	-1.093545e+002
4680000000	-3.520158e+001	-9.584671e+001	-1.208028e-001	5.755155e-001	-9.623674e-002	1.135898e+000	-3.311843e+001	-1.165789e+002
4690000000	-3.447264e+001	-1.188311e+002	-6.162434e-002	3.685416e-001	-1.351256e-001	1.407919e+000	-3.232765e+001	-1.112842e+002
4700000000	-3.438022e+001	-1.331845e+002	-8.320517e-002	1.054880e+000	-1.055855e-001	1.263916e+000	-3.462157e+001	-1.192553e+002
4710000000	-3.638681e+001	-1.545341e+002	-1.146736e-004	9.011938e-001	-1.253789e-001	1.019653e+000	-3.378542e+001	-1.117252e+002
4720000000	-3.481275e+001	-1.677009e+002	-1.008935e-002	9.760887e-001	-2.944743e-002	1.426210e+000	-3.431079e+001	-1.204613e+002
4730000000	-3.937722e+001	1.630092e+002	-5.402486e-002	5.581999e-001	-5.412856e-002	7.576086e-001	-3.618063e+001	-1.172094e+002
4740000000	-3.739049e+001	1.313151e+002	-2.821369e-002	5.653697e-001	-7.391545e-002	1.113565e+000	-3.564030e+001	-1.158547e+002
4750000000	-3.636245e+001	1.230301e+002	-3.644431e-002	8.674970e-001	-1.191122e-001	1.168971e+000	-3.460096e+001	-1.132767e+002
4760000000	-3.880942e+001	7.457014e+001	-1.190946e-001	3.570291e-001	-1.405119e-001	1.284631e+000	-3.414660e+001	-1.188022e+002
4770000000	-3.453529e+001	6.366830e+001	-2.496721e-002	3.476095e-001	-8.653144e-002	1.328459e+000	-3.289616e+001	-1.102481e+002
4780000000	-3.628714e+001	4.069840e+001	-3.593643e-002	8.860879e-001	-9.984673e-002	1.175071e+000	-3.412107e+001	-1.194870e+002
4790000000	-3.665038e+001	1.804236e+001	-1.251559e-001	9.238315e-001	-9.626918e-002	1.479773e+000	-3.275671e+001	-1.244838e+002
4800000000	-3.434419e+001	1.102029e+001	-1.030278e-001	4.617503e-001	-4.997296e-002	1.190409e+000	-3.377497e+001	-1.340510e+002
4810000000	-3.350555e+001	-2.435602e+001	-6.234400e-002	1.132133e+000	-6.339892e-002	1.103475e+000	-3.413513e+001	-1.317713e+002
4820000000	-3.453824e+001	-3.930188e+001	-8.570989e-002	8.849279e-001	-8.947170e-002	1.576042e+000	-3.403625e+001	-1.287033e+002
4830000000	-3.430592e+001	-5.576966e+001	-9.033489e-002	5.221671e-001	2.850168e-002	1.268703e+000	-3.281043e+001	-1.321229e+002
4840000000	-3.425507e+001	-7.067075e+001	-7.964700e-002	5.563339e-001	-9.669723e-002	1.589337e+000	-3.542765e+001	-1.265556e+002
4850000000	-3.312397e+001	-1.053610e+002	-3.817636e-002	1.454025e+000	-8.041892e-002	1.018219e+000	-3.585263e+001	-1.336232e+002
4860000000	-3.601267e+001	-1.232637e+002	-7.072328e-002	1.098157e+000	-1.848219e-002	1.494137e+000	-3.291319e+001	-1.366405e+002
4870000000	-3.631871e+001	-1.481886e+002	-1.295606e-002	1.169327e+000	-9.102639e-002	1.406381e+000	-3.544984e+001	-1.283026e+002
4880000000	-3.624192e+001	1.781434e+002	1.622704e-002	6.371779e-001	-4.511392e-002	1.410384e+000	-3.546570e+001	-1.231945e+002
4890000000	-3.607345e+001	1.549663e+002	3.824912e-002	8.473299e-001	-7.879057e-002	6.407655e-001	-3.589024e+001	-1.285079e+002
4900000000	-3.535084e+001	1.341700e+002	-1.887717e-002	7.230097e-001	-5.280047e-002	1.043833e+000	-3.577798e+001	-1.351580e+002
4910000000	-3.416990e+001	1.169863e+002	1.160252e-002	3.892504e-001	-6.080334e-002	1.402060e+000	-3.340019e+001	-1.276489e+002
4920000000	-3.532508e+001	1.058735e+002	6.754608e-002	6.053255e-001	-7.919793e-002	1.656975e+000	-3.360713e+001	-1.313682e+002
4930000000	-3.577930e+001	7.822606e+001	-1.987578e-002	1.068507e+000	-3.140227e-002	1.303936e+000	-3.305008e+001	-1.343576e+002
4940000000	-3.540894e+001	6.038693e+001	-5.827822e-002	4.779458e-001	-1.176308e-002	1.844655e+000	-3.359943e+001	-1.335216e+002
4950000000	-3.565928e+001	4.125287e+001	9.467685e-003	7.108060e-001	-3.106672e-002	1.385149e+000	-3.412102e+001	-1.375738e+002
4960000000	-3.514672e+001	1.111107e+001	-8.829082e-002	7.654332e-001	-4.091271e-002	1.386965e+000	-3.464104e+001	-1.363716e+002
4970000000	-3.509610e+001	5.087954e+000	-6.907573e-002	1.233486e+000	-3.301575e-002	1.536664e+000	-3.423721e+001	-1.430683e+002
4980000000	-3.459677e+001	-3.336329e+001	-8.425597e-003	7.057459e-001	-1.231505e-001	1.278050e+000	-3.466297e+001	-1.464168e+002
4990000000	-3.512834e+001	-5.383651e+001	-2.140283e-002	1.069937e+000	6.782654e-003	1.553383e+000	-3.448015e+001	-1.284071e+002
5000000000	-3.813666e+001	-7.958851e+001	-2.329423e-002	1.046074e+000	-4.079477e-002	1.470757e+000	-3.560218e+001	-1.455240e+002
5010000000	-3.621058e+001	-9.549135e+001	6.405914e-003	1.285965e+000	3.055806e-003	1.676838e+000	-3.470633e+001	-1.494098e+002
5020000000	-3.666868e+001	-1.237459e+002	3.884987e-002	8.660758e-001	7.532784e-002	1.412463e+000	-3.370626e+001	-1.424213e+002
5030000000	-3.605984e+001	-1.538460e+002	2.521941e-002	9.478705e-001	-5.760027e-002	1.140785e+000	-3.569502e+001	-1.404022e+002
5040000000	-3.663930e+001	-1.696749e+002	-2.567192e-002	1.451331e+000	-6.892766e-002	8.646869e-001	-3.533457e+001	-1.475010e+002
5050000000	-3.552538e+001	1.661932e+002	7.392767e-003	9.968720e-001	5.369874e-003	1.231389e+000	-3.515181e+001	-1.450563e+002
5060000000	-3.383457e+001	1.534845e+002	5.200083e-002	7.618772e-001	-4.818737e-002	1.497871e+000	-3.604074e+001	-1.382473e+002
5070000000	-3.323604e+001	1.331424e+002	2.699105e-002	8.443059e-001	-7.773902e-002	1.127261e+000	-3.478859e+001	-1.541110e+002
5080000000	-3.451113e+001	1.195301e+002	-3.833835e-002	1.135531e+000	4.852892e-002	1.594315e+000	-3.392830e+001	-1.519214e+002
5090000000	-3.550653e+001	1.028168e+002	-3.267635e-002	8.530973e-001	-3.714247e-002	1.512528e+000	-3.299786e+001	-1.588181e+002
5100000000	-3.436669e+001	7.988159e+001	1.372514e-002	9.472455e-001	2.731431e-002	1.431950e+000	-3.361733e+001	-1.603210e+002
5110000000	-3.581095e+001	5.293736e+001	5.967096e-002	9.331348e-001	6.836100e-003	1.417597e+000	-3.293057e+001	-1.561090e+002
5120000000	-3.856581e+001	3.725286e+001	3.119705e-002	7.052698e-001	1.431453e-002	1.491165e+000	-3.485014e+001	-1.476065e+002
5130000000	-3.583970e+001	1.094736e+001	1.777508e-002	7.482484e-001	2.137050e-002	1.366373e+000	-3.451162e+001	-1.590460e+002
5140000000	-3.488282e+001	4.833637e+000	-4.695166e-002	8.471586e-001	6.676094e-002	1.359631e+000	-3.570351e+001	-1.654557e+002
5150000000	-3.608207e+001	-1.948742e+001	1.470948e-002	6.708286e-001	6.675445e-003	1.314658e+000	-3.550375e+001	-1.576375e+002
5160000000	-3.808866e+001	-6.151980e+001	-1.080836e-002	6.460564e-001	3.369869e-002	1.136343e+000	-3.448111e+001	-1.594940e+002
5170000000	-3.667037e+001	-7.446451e+001	2.224541e-002	8.996011e-001	-1.682772e-002	1.464157e+000	-3.681771e+001	-1.504387e+002
5180000000	-3.690700e+001	-1.106404e+002	2.244727e-002	1.341626e+000	-3.407233e-002	1.187162e+000	-3.544489e+001	-1.613500e+002
5190000000	-3.404928e+001	-1.292299e+002	-2.802900e-002	6.284927e-001	-7.738227e-004	1.169873e+000	-3.420986e+001	-1.580255e+002
5200000000	-3.570039e+001	-1.668277e+002	4.409422e-002	9.558337e-001	1.545008e-003	1.585998e+000	-3.324246e+001	-1.581377e+002
5210000000	-3.444437e+001	-1.799497e+002	6.781298e-002	1.056488e+000	4.352404e-002	1.331210e+000	-3.583658e+001	-1.590276e+002
5220000000	-3.435490e+001	1.724861e+002	3.406357e-002	8.504879e-001	-5.864494e-002	1.230057e+000	-3.333266e+001	-1.749828e+002
5230000000	-3.307605e+001	1.447742e+002	7.923340e-002	1.265203e+000	-5.968758e-002	1.318826e+000	-3.343451e+001	-1.741970e+002
5240000000	-3.352568e+001	1.323643e+002	1.049467e-001	1.127148e+000	6.234062e-002	1.077685e+000	-3.385188e+001	-1.620626e+002
5250000000	-3.382956e+001	1.111806e+002	3.639632e-002	9.795124e-001	9.750135e-002	1.059945e+000	-3.438030e+001	-1.637288e+002
5260000000	-3.479220e+001	8.926417e+001	9.694847e-002	1.048089e+000	-5.360175e-003	1.228151e+000	-3.543584e+001	-1.742922e+002
5270000000	-3.441359e+001	6.077008e+001	9.612162e-002	6.386487e-001	5.343382e-002	1.195523e+000	-3.302525e+001	-1.699844e+002
5280000000	-3.578890e+001	4.934006e+001	3.110948e-002	6.040395e-001	2.727940e-002	1.404704e+000	-3.533722e+001	-1.722868e+002
5290000000	-3.451081e+001	3.267401e+001	-4.334272e-002	9.340203e-001	1.189871e-002	1.385519e+000	-3.578572e+001	-1.560663e+002
5300000000	-3.948912e+001	-4.857773e+000	1.895394e-003	4.896905e-001	3.636728e-002	1.234753e+000	-3.470643e+001	-1.740356e+002
5310000000	-3.712911e+001	-1.736205e+001	6.583349e-002	9.657510e-001	4.802178e-002	8.519441e-001	-3.621215e+001	-1.662720e+002
5320000000	-3.694103e+001	-3.805471e+001	4.148854e-002	8.767391e-001	7.785233e-002	1.212007e+000	-3.414389e+001	-1.664152e+002
5330000000	-3.626252e+001	-7.093516e+001	4.878359e-002	9.120447e-001	1.853979e-002	1.269467e+000	-3.308546e+001	-1.749102e+002
5340000000	-3.853081e+001	-8.483042e+001	8.593484e-002	1.039902e+000	4.320101e-002	1.219902e+000	-3.514847e+001	-1.757746e+002
5350000000	-3.601326e+001	-1.068205e+002	5.268174e-002	1.244080e+000	4.757840e-002	8.428064e-001	-3.594112e+001	-1.741293e+002
5360000000	-3.393038e+001	-1.240238e+002	1.013304e-001	1.183949e+000	4.588268e-003	1.345000e+000	-3.419851e+001	-1.720683e+002
5370000000	-3.457041e+001	-1.595587e+002	1.092653e-001	1.115289e+000	3.063699e-002	1.143550e+000	-3.515750e+001	-1.542882e+002
5380000000	-3.615234e+001	1.744844e+002	1.436342e-001	1.035483e+000	1.500090e-002	1.726379e+000	-3.416887e+001	-1.749741e+002
5390000000	-3.478272e+001	1.588804e+002	1.017010e-001	8.081442e-001	1.028982e-003	1.349471e+000	-3.379195e+001	-1.792522e+002
5400000000	-3.545530e+001	1.508640e+002	8.060078e-002	8.246531e-001	9.572022e-002	1.551591e+000	-3.578395e+001	1.769499e+002
5410000000	-3.535402e+001	1.213834e+002	7.345162e-002	8.944019e-001	9.873601e-002	1.142324e+000	-3.465951e+001	-1.779666e+002
5420000000	-3.464447e+001	1.216801e+002	5.149620e-002	8.263178e-001	7.914915e-002	1.198017e+000	-3.374675e+001	1.741025e+002
5430000000	-3.608901e+001	8.175055e+001	1.587729e-001	5.717532e-001	8.917686e-002	1.276266e+000	-3.290039e+001	1.741782e+002
5440000000	-3.502101e+001	6.039786e+001	1.579222e-001	6.699470e-001	9.901294e-002	7.291979e-001	-3.488631e+001	-1.775731e+002
5450000000	-3.716172e+001	4.485256e+001	5.079325e-002	8.447377e-001	4.642955e-002	1.559378e+000	-3.419981e+001	-1.768493e+002
5460000000	-3.641761e+001	1.246062e+001	7.186447e-002	9.302282e-001	1.322309e-001	1.244345e+000	-3.457447e+001	1.655683e+002
5470000000	-3.625363e+001	-1.379511e+001	1.180949e-001	4.610786e-001	8.778668e-002	1.506286e+000	-3.500647e+001	1.693775e+002
5480000000	-3.577617e+001	-2.761351e+001	9.666177e-002	5.730391e-001	4.550105e-002	1.118892e+000	-3.600263e+001	1.732686e+002
5490000000	-3.451986e+001	-5.186638e+001	9.949121e-002	6.765545e-001	8.333477e-002	1.188379e+000	-3.611273e+001	-1.723552e+002
5500000000	-3.641789e+001	-6.349530e+001	1.426384e-001	1.100765e+000	2.683413e-002	1.382237e+000	-3.534999e+001	1.799617e+002
5510000000	-3.473686e+001	-8.233317e+001	1.015870e-001	8.698857e-001	6.657400e-002	1.139285e+000	-3.388475e+001	1.782700e+002
5520000000	-3.471666e+001	-1.038681e+002	1.918650e-001	8.105211e-001	9.447234e-002	1.142325e+000	-3.623494e+001	1.716892e+002
5530000000	-3.616291e+001	-1.200988e+002	1.291415e-001	7.151414e-001	6.059025e-002	1.148317e+000	-3.570940e+001	1.664261e+002
