!Agilent Technologies,N5230A,US43500221,A.06.04.28
!Agilent N5230A: A.06.04.28
!Date: Monday, March 30, 2015 23:02:03
!Correction: S11(Full 2 Port(1,2)) S21(Full 2 Port(1,2)) S12(Full 2 Port(1,2)) S22(Full 2 Port(1,2)) 
!S2P File: Measurements: S11, S21, S12, S22:
# Hz S  dB   R 50
1000000000 -7.703173e-001 -1.212459e+002 -4.844474e+001 -4.826305e+001 -6.200148e+001 -1.185861e+002 4.142357e-001 1.612814e+002
1011875000 -7.505075e-001 -1.232465e+002 -5.509999e+001 7.877576e+001 -5.971028e+001 -5.114829e+001 4.789661e-001 1.613829e+002
1023750000 -7.080448e-001 -1.243123e+002 -5.112455e+001 -1.587260e+002 -5.794532e+001 6.232816e+001 4.638657e-001 1.611078e+002
1035625000 -8.017323e-001 -1.260009e+002 -6.251096e+001 -6.373145e+001 -5.806873e+001 -1.171002e+002 5.238876e-001 1.612355e+002
1047500000 -8.813666e-001 -1.278352e+002 -4.593449e+001 -1.261311e+002 -6.399587e+001 1.653234e+002 5.309716e-001 1.613393e+002
1059375000 -7.304214e-001 -1.288624e+002 -5.504373e+001 -1.396633e+002 -5.962221e+001 1.661458e+002 5.365918e-001 1.611435e+002
1071250000 -7.805541e-001 -1.304469e+002 -6.350918e+001 -1.556860e+002 -5.865400e+001 -3.188838e+001 5.474020e-001 1.610587e+002
1083125000 -8.130926e-001 -1.321145e+002 -4.569108e+001 1.729835e+002 -6.121466e+001 1.634844e+001 5.819570e-001 1.609666e+002
1095000000 -8.093956e-001 -1.337391e+002 -5.023616e+001 2.352253e+001 -5.599424e+001 1.156157e+002 6.050918e-001 1.606168e+002
1106875000 -9.083534e-001 -1.348048e+002 -5.060257e+001 -4.046325e+001 -5.808368e+001 3.131850e+001 6.081049e-001 1.606797e+002
1118750000 -7.995062e-001 -1.360553e+002 -4.385011e+001 2.099494e+001 -6.151530e+001 9.398348e+001 6.010912e-001 1.607492e+002
1130625000 -8.290937e-001 -1.374685e+002 -7.136820e+001 3.909866e+001 -5.413222e+001 1.248510e+002 6.717625e-001 1.601892e+002
1142500000 -8.942702e-001 -1.389956e+002 -6.269786e+001 1.564898e+002 -6.631136e+001 1.557716e+002 6.631028e-001 1.606956e+002
1154375000 -8.772051e-001 -1.408524e+002 -4.506196e+001 1.146784e+002 -5.823645e+001 -4.984189e+000 6.929842e-001 1.604275e+002
1166250000 -9.267729e-001 -1.419185e+002 -4.704930e+001 -1.385105e+002 -6.302748e+001 1.418040e+002 7.059461e-001 1.603925e+002
1178125000 -1.024556e+000 -1.442192e+002 -5.175763e+001 1.435510e+002 -6.597810e+001 -7.082800e+001 7.715561e-001 1.605461e+002
1190000000 -9.958410e-001 -1.451247e+002 -4.906326e+001 7.859505e+001 -5.945082e+001 -2.928626e+001 8.189924e-001 1.603395e+002
1201875000 -9.810011e-001 -1.470549e+002 -4.732563e+001 -1.475920e+002 -6.257801e+001 6.419588e+001 7.694541e-001 1.603866e+002
1213750000 -9.417906e-001 -1.481181e+002 -5.475651e+001 -1.004623e+002 -7.217914e+001 3.861461e+001 8.021307e-001 1.601702e+002
1225625000 -9.686633e-001 -1.499146e+002 -5.605268e+001 -4.654677e+001 -6.787624e+001 -4.892997e+001 8.749207e-001 1.604008e+002
1237500000 -1.159039e+000 -1.514008e+002 -5.128335e+001 1.532289e+002 -6.988841e+001 6.324956e+001 9.283363e-001 1.603869e+002
1249375000 -1.046144e+000 -1.532144e+002 -5.564876e+001 -5.469445e+001 -6.678707e+001 7.429799e+001 9.670882e-001 1.598306e+002
1261250000 -1.153624e+000 -1.544324e+002 -5.323890e+001 1.279442e+002 -6.769979e+001 -3.806906e+000 9.945897e-001 1.601042e+002
1273125000 -1.157140e+000 -1.559256e+002 -5.170406e+001 1.695274e+002 -6.246264e+001 -9.777741e+000 9.790945e-001 1.600488e+002
1285000000 -1.102228e+000 -1.574529e+002 -5.060238e+001 9.665359e+001 -6.028070e+001 -1.623266e+002 1.018464e+000 1.596724e+002
1296875000 -1.217452e+000 -1.589955e+002 -5.285768e+001 -1.422514e+002 -8.172672e+001 -5.427691e+001 1.058128e+000 1.600501e+002
1308750000 -1.161425e+000 -1.607493e+002 -4.172560e+001 8.044717e+001 -6.613489e+001 -1.038764e+002 1.131703e+000 1.598454e+002
1320625000 -1.162721e+000 -1.622162e+002 -5.810831e+001 7.587689e+001 -6.511903e+001 -1.028459e+002 1.130164e+000 1.602688e+002
1332500000 -1.157107e+000 -1.635924e+002 -4.838308e+001 -3.188274e+000 -6.232610e+001 -2.349884e+001 1.197666e+000 1.603270e+002
1344375000 -1.205326e+000 -1.650314e+002 -6.126709e+001 -1.006012e+002 -6.470924e+001 -6.389114e+001 1.205561e+000 1.600992e+002
1356250000 -1.204753e+000 -1.663200e+002 -4.494538e+001 -9.455444e+001 -5.921235e+001 1.717482e+002 1.234773e+000 1.603319e+002
1368125000 -1.277619e+000 -1.671241e+002 -5.754941e+001 -1.153964e+002 -6.264437e+001 -1.074437e+002 1.207876e+000 1.596736e+002
1380000000 -1.235539e+000 -1.692599e+002 -4.599269e+001 -3.591143e+001 -5.872990e+001 1.752979e+002 1.342156e+000 1.603574e+002
1391875000 -1.263929e+000 -1.706106e+002 -5.256617e+001 3.850593e+001 -6.329725e+001 1.087713e+002 1.356198e+000 1.600963e+002
1403750000 -1.365573e+000 -1.725247e+002 -5.479271e+001 1.161702e+002 -5.858643e+001 -2.904269e+001 1.402921e+000 1.601972e+002
1415625000 -1.420106e+000 -1.732793e+002 -6.134790e+001 1.341389e+002 -6.593269e+001 7.210132e+001 1.400176e+000 1.600332e+002
1427500000 -1.355867e+000 -1.758876e+002 -6.250685e+001 3.575313e+001 -6.836781e+001 -1.505115e+002 1.441357e+000 1.604054e+002
1439375000 -1.377648e+000 -1.766064e+002 -5.140212e+001 -7.746887e+001 -5.805605e+001 7.610930e+000 1.558465e+000 1.604169e+002
1451250000 -1.419186e+000 -1.781426e+002 -5.445863e+001 4.008221e+001 -7.053782e+001 1.912718e+001 1.547953e+000 1.603343e+002
1463125000 -1.418097e+000 1.799028e+002 -5.584286e+001 1.434179e+002 -6.038531e+001 8.332002e+000 1.606610e+000 1.607538e+002
1475000000 -1.423854e+000 1.787694e+002 -5.138517e+001 -6.493334e+001 -6.097746e+001 -4.423808e+001 1.612441e+000 1.606225e+002
1486875000 -1.422405e+000 1.770813e+002 -4.588396e+001 -7.043029e+001 -5.230227e+001 -1.386554e+002 1.664300e+000 1.611000e+002
1498750000 -1.489474e+000 1.756233e+002 -4.792905e+001 6.786073e+001 -5.717546e+001 -9.855870e+001 1.734282e+000 1.610556e+002
1510625000 -1.479430e+000 1.745620e+002 -5.799780e+001 7.128500e+001 -5.901356e+001 -1.029915e+002 1.760805e+000 1.610324e+002
1522500000 -1.508721e+000 1.727046e+002 -4.714734e+001 -1.236510e+002 -5.737701e+001 -1.510407e+002 1.828532e+000 1.613002e+002
1534375000 -1.555484e+000 1.713241e+002 -5.289619e+001 8.623949e+001 -6.187125e+001 1.425001e+001 1.821527e+000 1.615096e+002
1546250000 -1.540703e+000 1.696079e+002 -5.442682e+001 6.809230e+001 -6.495544e+001 -1.393275e+002 1.915450e+000 1.615013e+002
1558125000 -1.524576e+000 1.682412e+002 -4.787394e+001 1.845900e+001 -5.752824e+001 5.027740e+000 1.923725e+000 1.619299e+002
1570000000 -1.599307e+000 1.660155e+002 -4.753119e+001 -1.299768e+001 -4.699010e+001 1.637056e+002 2.040888e+000 1.618895e+002
1581875000 -1.635739e+000 1.646893e+002 -4.672368e+001 -1.434470e+002 -6.309118e+001 -2.866742e+000 2.074403e+000 1.621895e+002
1593750000 -1.640419e+000 1.630685e+002 -6.099788e+001 2.425389e+001 -6.052279e+001 -1.174109e+001 2.130131e+000 1.621880e+002
1605625000 -1.663662e+000 1.619804e+002 -6.833749e+001 1.476397e+002 -5.804254e+001 -3.985648e+001 2.178794e+000 1.623745e+002
1617500000 -1.674231e+000 1.608395e+002 -5.217138e+001 5.928888e+001 -5.033077e+001 1.985242e+000 2.251233e+000 1.632980e+002
1629375000 -1.724683e+000 1.592345e+002 -4.946922e+001 -5.546852e+001 -5.302318e+001 -2.222046e+001 2.262276e+000 1.625597e+002
1641250000 -1.751372e+000 1.577045e+002 -5.501245e+001 1.714176e+002 -6.224413e+001 9.056273e+001 2.292947e+000 1.634462e+002
1653125000 -1.727671e+000 1.560397e+002 -5.029871e+001 -1.533020e+002 -5.277193e+001 -1.380302e+002 2.387775e+000 1.637502e+002
1665000000 -1.759022e+000 1.546647e+002 -5.454788e+001 1.231619e+002 -5.091614e+001 8.804751e+001 2.401993e+000 1.643373e+002
1676875000 -1.795203e+000 1.532555e+002 -5.663675e+001 6.560631e+001 -6.304216e+001 -1.673185e+002 2.487569e+000 1.647862e+002
1688750000 -1.842572e+000 1.519571e+002 -5.333660e+001 1.532342e+002 -5.432077e+001 1.361869e+002 2.613664e+000 1.649462e+002
1700625000 -1.813150e+000 1.503532e+002 -5.540079e+001 1.257138e+002 -5.032946e+001 2.306763e+001 2.685217e+000 1.649546e+002
1712500000 -1.845436e+000 1.486829e+002 -7.133833e+001 -3.509396e+001 -4.778284e+001 -9.546404e+001 2.780171e+000 1.660830e+002
1724375000 -1.899592e+000 1.471377e+002 -4.702938e+001 7.244173e+001 -4.740059e+001 8.993090e+001 2.880306e+000 1.665927e+002
1736250000 -1.940304e+000 1.453761e+002 -4.837568e+001 -6.939412e+001 -4.587969e+001 -5.918623e+001 2.933485e+000 1.665467e+002
1748125000 -1.889300e+000 1.436132e+002 -4.736152e+001 -8.234392e+001 -4.628505e+001 3.941460e+001 2.962812e+000 1.671735e+002
1760000000 -1.945982e+000 1.422858e+002 -5.002011e+001 1.378700e+002 -5.580356e+001 1.606681e+001 3.017393e+000 1.670509e+002
1771875000 -1.937715e+000 1.409533e+002 -5.415011e+001 -5.014554e+001 -4.742204e+001 -5.357880e+001 3.088461e+000 1.677448e+002
1783750000 -2.022512e+000 1.399335e+002 -5.709163e+001 -9.755141e+001 -4.976954e+001 1.111866e+002 3.265947e+000 1.679302e+002
1795625000 -1.995218e+000 1.382122e+002 -5.049073e+001 1.141014e+002 -4.317363e+001 -7.820887e+001 3.344277e+000 1.685174e+002
1807500000 -2.071598e+000 1.362989e+002 -5.965976e+001 2.489051e+001 -6.081753e+001 -1.314448e+002 3.524093e+000 1.694017e+002
1819375000 -2.066144e+000 1.346922e+002 -5.953447e+001 1.549819e+002 -4.912844e+001 -1.538657e+002 3.537798e+000 1.699566e+002
1831250000 -2.051157e+000 1.328238e+002 -5.253721e+001 9.173553e+000 -5.476469e+001 2.533518e+001 3.613457e+000 1.707345e+002
1843125000 -2.103614e+000 1.313726e+002 -4.782219e+001 1.779583e+002 -4.183405e+001 -5.997539e+001 3.603160e+000 1.707428e+002
1855000000 -2.102819e+000 1.303000e+002 -5.287537e+001 9.594011e+001 -5.160480e+001 6.830503e+001 3.789175e+000 1.712848e+002
1866875000 -2.151491e+000 1.287488e+002 -5.156808e+001 3.360875e+000 -4.677826e+001 -1.451758e+002 3.801433e+000 1.709845e+002
1878750000 -2.182212e+000 1.269622e+002 -5.497806e+001 9.542229e+001 -4.269546e+001 1.382913e+002 4.056757e+000 1.722873e+002
1890625000 -2.249558e+000 1.251108e+002 -4.660662e+001 -1.706968e+002 -4.654134e+001 -5.732082e+001 4.122277e+000 1.731143e+002
1902500000 -2.259088e+000 1.238419e+002 -5.877930e+001 -6.130799e+001 -4.914285e+001 -6.773277e+001 4.281099e+000 1.734563e+002
1914375000 -2.401370e+000 1.222927e+002 -5.962041e+001 -3.737954e+001 -4.389206e+001 7.125423e+001 4.201317e+000 1.739881e+002
1926250000 -2.282529e+000 1.204723e+002 -5.248482e+001 -9.527086e+001 -4.390734e+001 -1.405294e+002 4.297937e+000 1.753090e+002
1938125000 -2.389495e+000 1.191962e+002 -5.327695e+001 -8.333159e+001 -5.651860e+001 -2.003659e+001 4.497757e+000 1.751924e+002
1950000000 -2.391594e+000 1.177737e+002 -5.030942e+001 -2.374182e+001 -4.891688e+001 1.120963e+002 4.420374e+000 1.763928e+002
1961875000 -2.322242e+000 1.158246e+002 -4.830668e+001 3.821864e+001 -3.941166e+001 1.785638e+002 4.656371e+000 1.767505e+002
1973750000 -2.413296e+000 1.138824e+002 -4.869347e+001 -1.196726e+001 -4.093234e+001 -8.024374e+001 4.863539e+000 1.773854e+002
1985625000 -2.416430e+000 1.128219e+002 -5.698460e+001 7.705830e+001 -4.552452e+001 -1.362236e+002 4.829896e+000 1.787391e+002
1997500000 -2.537003e+000 1.112498e+002 -4.885937e+001 1.762027e+002 -5.240622e+001 1.456211e+002 5.014851e+000 1.790761e+002
2009375000 -2.553090e+000 1.101873e+002 -5.004536e+001 1.666409e+002 -4.343008e+001 -1.496381e+002 4.989497e+000 -1.790170e+002
2021250000 -2.538715e+000 1.081402e+002 -5.153977e+001 -9.504336e+001 -5.462275e+001 -1.693803e+002 5.165786e+000 -1.783109e+002
2033125000 -2.552678e+000 1.067418e+002 -6.050230e+001 9.652766e+001 -4.798415e+001 1.517328e+002 5.305150e+000 -1.767936e+002
2045000000 -2.608650e+000 1.050086e+002 -6.679445e+001 -5.758575e+001 -5.211440e+001 5.069943e+001 5.393852e+000 -1.761911e+002
2056875000 -2.617509e+000 1.030930e+002 -5.184890e+001 -1.512239e+002 -4.201723e+001 -1.565686e+002 5.410743e+000 -1.755078e+002
2068750000 -2.619698e+000 1.017597e+002 -4.427737e+001 1.778319e+002 -4.677400e+001 2.849149e+001 5.786631e+000 -1.744044e+002
2080625000 -2.703123e+000 9.985156e+001 -4.991993e+001 -1.422214e+002 -4.887210e+001 1.509230e+002 5.755221e+000 -1.726444e+002
2092500000 -2.654326e+000 9.853234e+001 -4.827491e+001 1.722653e+002 -4.064421e+001 -1.196022e+002 5.634693e+000 -1.712011e+002
2104375000 -2.779147e+000 9.672228e+001 -4.740986e+001 1.472616e+002 -5.163503e+001 -7.648912e+001 5.642560e+000 -1.706274e+002
2116250000 -2.828858e+000 9.510207e+001 -5.445858e+001 3.094338e+001 -4.187735e+001 1.694787e+002 5.968976e+000 -1.702764e+002
2128125000 -2.810562e+000 9.327679e+001 -4.608177e+001 -6.266622e+000 -4.005581e+001 2.445312e+001 6.152087e+000 -1.680426e+002
2140000000 -2.853898e+000 9.185394e+001 -5.146095e+001 7.390352e+001 -3.950397e+001 1.471518e+002 6.277650e+000 -1.667236e+002
2151875000 -2.907987e+000 9.007005e+001 -5.653341e+001 -4.491676e+001 -4.248539e+001 1.006249e+002 5.959035e+000 -1.659331e+002
2163750000 -2.875189e+000 8.959767e+001 -4.466646e+001 -1.386642e+002 -4.293081e+001 -1.139258e+002 6.235966e+000 -1.637520e+002
2175625000 -2.922523e+000 8.756844e+001 -4.202734e+001 1.727363e+002 -5.098889e+001 8.201678e+001 6.428594e+000 -1.619843e+002
2187500000 -2.964931e+000 8.653178e+001 -4.776995e+001 1.386227e+002 -4.119413e+001 1.039249e+002 6.407699e+000 -1.617467e+002
2199375000 -2.782815e+000 8.442599e+001 -6.016347e+001 -8.251868e+001 -5.140539e+001 2.059377e+001 6.499642e+000 -1.586422e+002
2211250000 -3.104163e+000 8.191264e+001 -5.852077e+001 -4.994933e+001 -3.959924e+001 -5.869238e+001 6.609046e+000 -1.570408e+002
2223125000 -3.142583e+000 8.111097e+001 -5.066662e+001 2.786512e+001 -3.417715e+001 -1.653935e+002 6.623273e+000 -1.562420e+002
2235000000 -3.094105e+000 7.875707e+001 -6.176863e+001 4.052974e+001 -4.636549e+001 1.124942e+002 6.661214e+000 -1.531070e+002
2246875000 -3.116420e+000 7.707935e+001 -5.534785e+001 1.799307e+002 -4.495888e+001 -6.066418e+001 6.676549e+000 -1.523931e+002
2258750000 -3.172035e+000 7.605161e+001 -5.472333e+001 -1.779409e+002 -5.238409e+001 9.023968e+001 6.775800e+000 -1.506441e+002
2270625000 -3.185162e+000 7.398984e+001 -5.547485e+001 -9.029230e+001 -3.812144e+001 1.387595e+002 6.879206e+000 -1.465980e+002
2282500000 -3.252507e+000 7.255443e+001 -4.472843e+001 -1.114203e+002 -4.123234e+001 1.529626e+002 6.768500e+000 -1.456451e+002
2294375000 -3.172415e+000 7.077263e+001 -6.106179e+001 5.525021e+001 -3.944487e+001 1.634806e+001 6.863888e+000 -1.442327e+002
2306250000 -3.274992e+000 6.945707e+001 -5.963172e+001 -6.496967e+001 -4.077585e+001 -1.622652e+002 7.048821e+000 -1.418600e+002
2318125000 -3.246456e+000 6.774094e+001 -4.893586e+001 1.234516e+002 -4.779541e+001 -2.132969e+001 6.758387e+000 -1.388561e+002
2330000000 -3.196912e+000 6.630071e+001 -5.071267e+001 -1.059621e+002 -3.293935e+001 -9.940607e+001 6.834996e+000 -1.365211e+002
2341875000 -3.363594e+000 6.456203e+001 -5.574839e+001 8.506297e+001 -3.592054e+001 -1.730041e+001 6.957779e+000 -1.357177e+002
2353750000 -3.462590e+000 6.301628e+001 -4.409992e+001 -1.115048e+002 -5.181820e+001 4.760252e+001 6.712207e+000 -1.317630e+002
2365625000 -3.462962e+000 6.185910e+001 -4.605545e+001 9.342071e+001 -4.573645e+001 6.209650e+001 6.809690e+000 -1.306417e+002
2377500000 -3.455952e+000 5.939022e+001 -4.839689e+001 4.996938e+001 -3.653671e+001 -2.656947e+001 6.929500e+000 -1.294934e+002
2389375000 -3.582636e+000 5.830634e+001 -5.027546e+001 -1.421690e+000 -3.927634e+001 1.049290e+002 6.933759e+000 -1.275767e+002
2401250000 -3.527431e+000 5.706989e+001 -5.433153e+001 -3.709803e+001 -4.834009e+001 -1.121201e+002 6.802259e+000 -1.245658e+002
2413125000 -3.546450e+000 5.436958e+001 -4.538165e+001 -7.606274e+001 -4.242865e+001 9.809582e+001 6.548991e+000 -1.236537e+002
2425000000 -3.638202e+000 5.271785e+001 -5.343965e+001 1.206631e+001 -4.958777e+001 -5.210059e+001 6.660561e+000 -1.211369e+002
2436875000 -3.689073e+000 5.147058e+001 -6.783923e+001 -9.435631e+001 -3.942609e+001 7.641815e+001 6.401060e+000 -1.188819e+002
2448750000 -3.748317e+000 4.956448e+001 -5.415843e+001 -1.324882e+001 -3.818248e+001 -8.252135e+001 6.479693e+000 -1.191124e+002
2460625000 -3.729261e+000 4.650105e+001 -4.744970e+001 -3.597427e+001 -3.808979e+001 1.559578e+002 6.375262e+000 -1.153101e+002
2472500000 -3.822946e+000 4.583007e+001 -5.038997e+001 1.744973e+002 -3.453090e+001 1.336782e+002 6.256857e+000 -1.145395e+002
2484375000 -3.861853e+000 4.515398e+001 -5.321816e+001 8.699950e+001 -4.833965e+001 5.761004e+001 6.147079e+000 -1.144948e+002
2496250000 -3.848049e+000 4.302955e+001 -4.670465e+001 7.390841e+001 -3.607449e+001 9.066103e+001 5.685772e+000 -1.116127e+002
2508125000 -3.994734e+000 4.240266e+001 -4.514430e+001 1.191796e+002 -4.175211e+001 -1.271195e+002 5.596577e+000 -1.124731e+002
2520000000 -3.989202e+000 3.937630e+001 -4.814024e+001 4.053449e+001 -4.325346e+001 -9.248322e+001 5.610674e+000 -1.101917e+002
2531875000 -4.027689e+000 3.742992e+001 -4.632779e+001 -1.288213e+002 -5.204026e+001 -9.425806e+001 5.285881e+000 -1.095752e+002
2543750000 -4.162103e+000 3.567081e+001 -5.533094e+001 -1.276194e+002 -4.855277e+001 -6.786182e+001 4.963917e+000 -1.078532e+002
2555625000 -4.095652e+000 3.427929e+001 -6.130967e+001 -9.260212e+001 -4.253130e+001 -8.197185e+001 4.895145e+000 -1.065766e+002
2567500000 -4.213837e+000 3.169394e+001 -5.724063e+001 3.325352e+001 -4.735355e+001 -5.674521e+001 4.633506e+000 -1.062960e+002
2579375000 -4.201234e+000 3.099758e+001 -4.513932e+001 -5.207089e+001 -4.455719e+001 -8.890020e+001 4.180778e+000 -1.056308e+002
2591250000 -4.442759e+000 2.858903e+001 -4.549767e+001 -5.091048e+001 -4.108957e+001 -3.417080e+001 3.639848e+000 -1.045512e+002
2603125000 -4.397270e+000 2.710991e+001 -5.021857e+001 -3.723474e+001 -4.494126e+001 2.124030e+000 3.295060e+000 -1.020506e+002
2615000000 -4.418608e+000 2.547724e+001 -4.426580e+001 8.270111e+001 -3.836879e+001 -8.181311e+001 2.912171e+000 -9.959005e+001
2626875000 -4.474266e+000 2.293482e+001 -4.573646e+001 2.241037e+001 -4.680971e+001 1.511668e+002 2.363903e+000 -9.584024e+001
2638750000 -4.568470e+000 2.114395e+001 -6.150252e+001 -1.346465e+002 -4.420151e+001 -1.731320e+002 2.146320e+000 -9.236554e+001
2650625000 -4.470402e+000 1.921348e+001 -4.055389e+001 1.063603e+002 -5.143332e+001 5.360112e+001 1.908267e+000 -9.020982e+001
2662500000 -4.651316e+000 1.814435e+001 -5.197773e+001 -9.735024e+001 -4.684692e+001 1.622388e+002 1.693083e+000 -8.553235e+001
2674375000 -4.725917e+000 1.614194e+001 -5.587671e+001 8.613088e+001 -3.928924e+001 -6.090378e+001 1.791834e+000 -8.446478e+001
2686250000 -4.743722e+000 1.449201e+001 -5.122439e+001 1.290277e+002 -4.452681e+001 4.357565e+001 1.873713e+000 -8.279276e+001
2698125000 -4.687135e+000 1.285052e+001 -4.542429e+001 -4.724947e-001 -4.811785e+001 -1.602709e+002 1.816535e+000 -8.055676e+001
2710000000 -4.893247e+000 1.026127e+001 -5.101157e+001 -1.500563e+002 -3.870037e+001 -4.586497e+001 1.617845e+000 -7.766855e+001
2721875000 -4.889333e+000 7.406773e+000 -5.155198e+001 1.708204e+002 -4.817388e+001 1.111592e+002 1.596636e+000 -7.700007e+001
2733750000 -5.080806e+000 6.248793e+000 -5.380646e+001 -1.485901e+002 -4.723975e+001 -1.416690e+002 1.610160e+000 -7.764994e+001
2745625000 -4.939263e+000 4.345522e+000 -5.187450e+001 -2.220998e+001 -4.965702e+001 -2.416717e+001 1.371130e+000 -7.562349e+001
2757500000 -5.046218e+000 2.032355e+000 -5.576176e+001 1.201124e+002 -4.121173e+001 -1.518580e+002 1.336981e+000 -7.381520e+001
2769375000 -5.122562e+000 1.852223e-001 -4.882110e+001 1.514302e+002 -4.169057e+001 -4.476031e+001 1.322414e+000 -7.398353e+001
2781250000 -5.230155e+000 -1.904016e+000 -6.135461e+001 1.077966e+002 -5.067867e+001 1.616397e+002 1.195139e+000 -7.290675e+001
2793125000 -5.319658e+000 -3.682078e+000 -4.494296e+001 -1.129402e+002 -4.080096e+001 1.433345e+001 1.147481e+000 -7.179270e+001
2805000000 -5.292926e+000 -5.631731e+000 -4.855990e+001 -4.337902e+001 -4.184562e+001 -1.322548e+002 1.035396e+000 -7.052775e+001
2816875000 -5.403290e+000 -7.135103e+000 -5.568652e+001 -5.700849e+001 -5.506002e+001 -1.296674e+002 8.733239e-001 -7.020052e+001
