! TOUCHSTONE file generated by CST MICROWAVE STUDIO
! Date and time: Tue Apr 24 13:55:47 2018
! Project name: Test_Line_20170724.cst
! Header version: 2015
! Port assignment regex: !\s*Touchstone port\s*([0-9]+)\s*=\s*CST MWS port\s*([0-9]+)\s*\(\"(.*)\"\)(\s*mode\s*([0-9]+))?.*
! Touchstone port assignment:
! Touchstone port 1 = CST MWS port 1 ("")
! Touchstone port 2 = CST MWS port 2 ("")
# GHZ S MA R 50
5                     0.00504811         175.958         0.991456         87.0624         0.991455         87.0624       0.00504996         178.669  
5.01                  0.00502973         175.411          0.99145         86.5163         0.991449         86.5163       0.00503162         178.142  
5.02                  0.00501022         174.865         0.991443         85.9702         0.991442         85.9702       0.00501215         177.616  
5.03                  0.00498958         174.318         0.991435         85.4241         0.991434         85.4241       0.00499156         177.091  
5.04                  0.00496782         173.772         0.991427          84.878         0.991426          84.878       0.00496984         176.566  
5.05                  0.00494492         173.225         0.991418         84.3318         0.991417         84.3318       0.00494699         176.042  
5.06                   0.0049209         172.678         0.991409         83.7857         0.991408         83.7857       0.00492302         175.519  
5.07                  0.00489575         172.132         0.991399         83.2395         0.991398         83.2395       0.00489793         174.997  
5.08                  0.00486948         171.585         0.991388         82.6934         0.991387         82.6934       0.00487172         174.476  
5.09                  0.00484209         171.038         0.991377         82.1472         0.991376         82.1472       0.00484438         173.955  
5.1                   0.00481358         170.491         0.991366          81.601         0.991364          81.601       0.00481593         173.436  
5.11                  0.00478395         169.944         0.991354         81.0548         0.991352         81.0548       0.00478637         172.917  
5.12                  0.00475321         169.396         0.991341         80.5087          0.99134         80.5087       0.00475569         172.399  
5.13                  0.00472135         168.849         0.991328         79.9625         0.991327         79.9625        0.0047239         171.883  
5.14                  0.00468838         168.301         0.991315         79.4163         0.991313         79.4163         0.004691         171.367  
5.15                   0.0046543         167.754         0.991301         78.8701           0.9913         78.8701       0.00465699         170.853  
5.16                  0.00461911         167.206         0.991286         78.3239         0.991285         78.3239       0.00462187         170.339  
5.17                  0.00458281         166.658         0.991272         77.7776         0.991271         77.7776       0.00458566         169.827  
5.18                  0.00454542          166.11         0.991257         77.2314         0.991255         77.2314       0.00454834         169.316  
5.19                  0.00450692         165.562         0.991241         76.6852          0.99124         76.6852       0.00450993         168.806  
5.2                   0.00446732         165.014         0.991225          76.139         0.991224          76.139       0.00447043         168.298  
5.21                  0.00442663         164.465         0.991209         75.5927         0.991208         75.5927       0.00442983         167.791  
5.22                  0.00438485         163.917         0.991193         75.0465         0.991192         75.0465       0.00438814         167.285  
5.23                  0.00434198         163.368         0.991176         74.5003         0.991175         74.5003       0.00434537         166.781  
5.24                  0.00429802         162.819         0.991159          73.954         0.991158          73.954       0.00430152         166.279  
5.25                  0.00425298          162.27         0.991142         73.4078          0.99114         73.4078       0.00425659         165.778  
5.26                  0.00420686          161.72         0.991124         72.8615         0.991123         72.8615       0.00421058         165.279  
5.27                  0.00415967         161.171         0.991106         72.3153         0.991105         72.3153        0.0041635         164.781  
5.28                   0.0041114         160.621         0.991088          71.769         0.991087          71.769       0.00411535         164.286  
5.29                  0.00406206          160.07         0.991069         71.2228         0.991068         71.2228       0.00406614         163.793  
5.3                   0.00401166          159.52         0.991051         70.6765          0.99105         70.6765       0.00401587         163.301  
5.31                   0.0039602         158.969         0.991032         70.1302         0.991031         70.1302       0.00396454         162.812  
5.32                  0.00390767         158.418         0.991013          69.584         0.991012          69.584       0.00391216         162.326  
5.33                  0.00385409         157.867         0.990994         69.0377         0.990993         69.0377       0.00385873         161.842  
5.34                  0.00379947         157.315         0.990974         68.4914         0.990973         68.4914       0.00380426          161.36  
5.35                  0.00374379         156.763         0.990955         67.9451         0.990953         67.9451       0.00374875         160.882  
5.36                  0.00368708          156.21         0.990935         67.3989         0.990934         67.3989        0.0036922         160.406  
5.37                  0.00362933         155.657         0.990915         66.8526         0.990914         66.8526       0.00363463         159.934  
5.38                  0.00357054         155.103         0.990895         66.3063         0.990894         66.3063       0.00357603         159.464  
5.39                  0.00351073         154.549         0.990875           65.76         0.990874           65.76       0.00351641         158.999  
5.4                   0.00344989         153.995         0.990855         65.2137         0.990853         65.2137       0.00345577         158.537  
5.41                  0.00338803         153.439         0.990834         64.6674         0.990833         64.6674       0.00339412          158.08  
5.42                  0.00332515         152.883         0.990814         64.1211         0.990812         64.1211       0.00333147         157.627  
5.43                  0.00326127         152.327         0.990793         63.5748         0.990792         63.5748       0.00326782         157.179  
5.44                  0.00319638          151.77         0.990772         63.0285         0.990771         63.0285       0.00320318         156.735  
5.45                  0.00313049         151.211         0.990752         62.4822          0.99075         62.4822       0.00313755         156.298  
5.46                  0.00306361         150.652         0.990731         61.9359         0.990729         61.9359       0.00307094         155.866  
5.47                  0.00299574         150.092          0.99071         61.3896         0.990709         61.3896       0.00300336         155.441  
5.48                  0.00292688         149.531         0.990689         60.8433         0.990688         60.8433       0.00293481         155.023  
5.49                  0.00285704         148.969         0.990668          60.297         0.990667          60.297       0.00286529         154.612  
5.5                   0.00278623         148.406         0.990647         59.7507         0.990646         59.7507       0.00279482          154.21  
5.51                  0.00271445         147.841         0.990626         59.2044         0.990624         59.2044       0.00272341         153.817  
5.52                  0.00264171         147.274         0.990605         58.6581         0.990603         58.6581       0.00265105         153.433  
5.53                  0.00256801         146.706         0.990584         58.1118         0.990582         58.1118       0.00257777         153.061  
5.54                  0.00249336         146.137         0.990562         57.5655         0.990561         57.5655       0.00250356         152.701  
5.55                  0.00241777         145.565         0.990541         57.0191          0.99054         57.0191       0.00242844         152.355  
5.56                  0.00234123          144.99          0.99052         56.4728         0.990519         56.4728       0.00235241         152.023  
5.57                  0.00226377         144.414         0.990499         55.9265         0.990498         55.9265       0.00227549         151.708  
5.58                  0.00218537         143.834         0.990478         55.3802         0.990477         55.3802       0.00219769         151.412  
5.59                   0.0021061         143.251         0.990457         54.8339         0.990455         54.8339       0.00211905         151.136  
5.6                    0.0020259         142.665         0.990436         54.2875         0.990434         54.2875       0.00203955         150.885  
5.61                   0.0019448         142.074         0.990415         53.7412         0.990413         53.7412       0.00195921          150.66  
5.62                   0.0018628         141.478         0.990394         53.1949         0.990392         53.1949       0.00187804         150.466  
5.63                  0.00177991         140.877         0.990373         52.6485         0.990371         52.6485       0.00179605         150.308  
5.64                  0.00169612         140.269         0.990352         52.1022          0.99035         52.1022       0.00171328         150.191  
5.65                  0.00161146         139.654         0.990331         51.5559         0.990329         51.5559       0.00162973         150.122  
5.66                  0.00152592          139.03          0.99031         51.0095         0.990309         51.0095       0.00154544         150.109  
5.67                  0.00143951         138.395         0.990289         50.4632         0.990288         50.4632       0.00146045         150.164  
5.68                  0.00135225         137.747         0.990268         49.9169         0.990267         49.9169       0.00137478         150.299  
5.69                  0.00126414         137.084         0.990248         49.3705         0.990246         49.3705        0.0012885         150.531  
5.7                   0.00117518           136.4         0.990227         48.8242         0.990226         48.8242       0.00120165         150.883  
5.71                  0.00108539         135.692         0.990207         48.2778         0.990205         48.2778       0.00111433         151.385  
5.72                 0.000994775         134.952         0.990186         47.7315         0.990185         47.7315       0.00102663         152.075  
5.73                 0.000903349         134.169         0.990166         47.1851         0.990164         47.1851      0.000938693         153.008  
5.74                 0.000811123          133.33         0.990145         46.6388         0.990144         46.6388      0.000850731         154.263  
5.75                 0.000718112         132.411         0.990125         46.0924         0.990124         46.0924      0.000763035          155.95  
5.76                 0.000624338         131.374         0.990105         45.5461         0.990104         45.5461      0.000676051         158.237  
5.77                 0.000529832         130.157         0.990085         44.9997         0.990083         44.9997      0.000590485         161.382  
5.78                 0.000434644         128.636         0.990065         44.4534         0.990063         44.4534       0.00050751         165.795  
5.79                 0.000338876          126.55         0.990045          43.907         0.990044          43.907      0.000429165         172.133  
5.8                  0.000242785         123.223         0.990025         43.3606         0.990024         43.3606      0.000359136        -178.585  
5.81                 0.000147276         116.209         0.990006         42.8143         0.990004         42.8143      0.000303986        -165.076  
5.82                5.93781e-005         87.9913         0.989986         42.2679         0.989984         42.2679      0.000273715        -146.895  
5.83                6.99986e-005        -12.5973         0.989966         41.7215         0.989965         41.7215      0.000277426        -126.679  
5.84                 0.000162043        -34.4555         0.989947         41.1752         0.989945         41.1752      0.000314624        -109.123  
5.85                 0.000260849        -40.6366         0.989928         40.6288         0.989926         40.6288      0.000376073        -96.3177  
5.86                 0.000361514        -43.7212         0.989908         40.0824         0.989907         40.0824      0.000452474        -87.5548  
5.87                 0.000463296        -45.7045         0.989889          39.536         0.989888          39.536      0.000537893        -81.5591  
5.88                 0.000565975        -47.1734          0.98987         38.9897         0.989869         38.9897      0.000629008          -77.37  
5.89                 0.000669457        -48.3612         0.989851         38.4433          0.98985         38.4433      0.000723967        -74.3742  
5.9                  0.000773695        -49.3787         0.989833         37.8969         0.989831         37.8969      0.000821695        -72.1902  
5.91                 0.000878658        -50.2853         0.989814         37.3505         0.989812         37.3505       0.00092154        -70.5765  
5.92                 0.000984326        -51.1157         0.989795         36.8041         0.989794         36.8041       0.00102308        -69.3758  
5.93                  0.00109068        -51.8916         0.989777         36.2577         0.989775         36.2577       0.00112605        -68.4823  
5.94                  0.00119771        -52.6269         0.989759         35.7113         0.989757         35.7113       0.00123025         -67.823  
5.95                   0.0013054        -53.3313          0.98974         35.1649         0.989739         35.1649       0.00133554        -67.3457  
5.96                  0.00141375        -54.0118         0.989722         34.6185         0.989721         34.6185       0.00144182        -67.0126  
5.97                  0.00152273        -54.6732         0.989704         34.0721         0.989703         34.0721       0.00154901        -66.7955  
5.98                  0.00163234        -55.3191         0.989686         33.5257         0.989685         33.5257       0.00165705         -66.673  
5.99                  0.00174257        -55.9525         0.989668         32.9793         0.989667         32.9793        0.0017659        -66.6287  
6                     0.00185342        -56.5753         0.989651         32.4329         0.989649         32.4329       0.00187551        -66.6496  
6.01                  0.00196486        -57.1895         0.989633         31.8865         0.989632         31.8865       0.00198585        -66.7257  
6.02                  0.00207689        -57.7961         0.989616         31.3401         0.989614         31.3401       0.00209689        -66.8486  
6.03                  0.00218951        -58.3965         0.989598         30.7937         0.989597         30.7937        0.0022086        -67.0117  
6.04                   0.0023027        -58.9913         0.989581         30.2472         0.989579         30.2472       0.00232096        -67.2095  
6.05                  0.00241645        -59.5815         0.989564         29.7008         0.989562         29.7008       0.00243396        -67.4376  
6.06                  0.00253075        -60.1675         0.989547         29.1544         0.989545         29.1544       0.00254757        -67.6921  
6.07                  0.00264559        -60.7499          0.98953          28.608         0.989528          28.608       0.00266178        -67.9698  
6.08                  0.00276097        -61.3291         0.989513         28.0615         0.989511         28.0615       0.00277657        -68.2682  
6.09                  0.00287687        -61.9054         0.989496         27.5151         0.989495         27.5151       0.00289193        -68.5848  
6.1                   0.00299329        -62.4793          0.98948         26.9687         0.989478         26.9687       0.00300784        -68.9178  
6.11                  0.00311021        -63.0509         0.989463         26.4222         0.989462         26.4222       0.00312429        -69.2654  
6.12                  0.00322762        -63.6204         0.989447         25.8758         0.989445         25.8758       0.00324126        -69.6262  
6.13                  0.00334552        -64.1881          0.98943         25.3293         0.989429         25.3293       0.00335874        -69.9989  
6.14                   0.0034639        -64.7542         0.989414         24.7829         0.989413         24.7829       0.00347673        -70.3824  
6.15                  0.00358274        -65.3188         0.989398         24.2364         0.989396         24.2364        0.0035952        -70.7756  
6.16                  0.00370204         -65.882         0.989382           23.69          0.98938           23.69       0.00371415        -71.1778  
6.17                  0.00382178         -66.444         0.989366         23.1435         0.989364         23.1435       0.00383356        -71.5882  
6.18                  0.00394195        -67.0048          0.98935         22.5971         0.989348         22.5971       0.00395343         -72.006  
6.19                  0.00406256        -67.5646         0.989334         22.0506         0.989333         22.0506       0.00407374        -72.4307  
6.2                   0.00418357        -68.1234         0.989319         21.5041         0.989317         21.5041       0.00419447        -72.8618  
6.21                  0.00430499        -68.6814         0.989303         20.9576         0.989301         20.9577       0.00431563        -73.2987  
6.22                  0.00442681        -69.2385         0.989288         20.4112         0.989286         20.4112       0.00443719         -73.741  
6.23                  0.00454901        -69.7949         0.989272         19.8647          0.98927         19.8647       0.00455915        -74.1883  
6.24                  0.00467159        -70.3506         0.989257         19.3182         0.989255         19.3182        0.0046815        -74.6402  
6.25                  0.00479453        -70.9056         0.989242         18.7717          0.98924         18.7717       0.00480422        -75.0965  
6.26                  0.00491783        -71.4601         0.989226         18.2252         0.989225         18.2253        0.0049273        -75.5568  
6.27                  0.00504147         -72.014         0.989211         17.6788          0.98921         17.6788       0.00505074        -76.0208  
6.28                  0.00516544        -72.5673         0.989196         17.1323         0.989195         17.1323       0.00517452        -76.4884  
6.29                  0.00528974        -73.1202         0.989181         16.5858          0.98918         16.5858       0.00529863        -76.9593  
