#	HZ	S	DB	R	50.00 
! Rohde & Schwarz ZVA24 4Ports - Version 3.60 - 1145.1110k26 SN: 100556
! Date: 2016-07-20 10:17:42
! Measurements: S11 S21 S12 S22 
! 
 2.000000000000000E9    -5.379355670861095E-1   1.041268450828914E2  -5.559557654905688E1  -9.103495366623687E1  -6.119933120430104E1  -1.274979134996279E2  -5.604997174511317E-1   1.037912305915165E2  
 2.005625000000000E9    -5.031686891242971E-1   1.034775493895436E2  -6.867044396578525E1   3.925071379127213E1  -5.844630767729239E1   5.731094405806034E1  -6.708443147757380E-1   1.038530360639248E2  
 2.011250000000000E9    -5.464843687908226E-1   1.034758517711215E2  -6.292834032736759E1  -1.280466153253153E2  -5.320061899816088E1  -3.227371289998698E1  -6.497980448301165E-1   1.026372514112950E2  
 2.016875000000000E9    -5.021709327621331E-1   1.021067653015317E2  -6.404271550254551E1   1.601745043252618E2  -5.724734057572078E1  -2.134447359124148E1  -5.740978031825705E-1   1.022527175148183E2  
 2.022500000000000E9    -4.439277270864661E-1   1.013741822466572E2  -6.356207636573424E1   1.056254713512955E2  -5.632478881238212E1   1.186171600034996E2  -5.980649373713965E-1   1.022820175445654E2  
 2.028125000000000E9    -5.409964186780512E-1   1.001089395899701E2  -6.721042176225377E1   6.597386307864524E1  -5.815541848579105E1   1.620862140849577E2  -6.306840595210101E-1   1.009474392112805E2  
 2.033750000000000E9    -3.925686984135271E-1   1.001949160632419E2  -6.470552514617467E1   1.322070329184656E2  -6.008789040404228E1  -1.002671097869325E2  -6.157866305444339E-1   1.001453044286378E2  
 2.039375000000000E9    -5.326576486013281E-1   9.971154390259721E1  -7.260406869789159E1   1.357393368778945E2  -5.466240443748215E1  -1.639163064348946E1  -6.307105803683815E-1   9.917117907201603E1  
 2.045000000000000E9    -4.766827172096541E-1   9.952113777840059E1  -6.022171452633835E1  -1.099459972407896E1  -6.442539201457240E1   1.902108077789845E1  -6.148898891712583E-1   9.890702630296720E1  
 2.050625000000000E9    -4.246527301777106E-1   9.795888212924989E1  -6.625962425438193E1   1.511641906482641E2  -6.871469049057647E1  -7.576899174529073E1  -6.452178434870471E-1   9.828731258916395E1  
 2.056250000000000E9    -6.105027890974557E-1   9.747115704558084E1  -5.817240710040358E1   3.083445588420466E1  -6.362222094958370E1   6.458051183515538E1  -6.160256431007232E-1   9.737238803214707E1  
 2.061875000000000E9    -4.883214380414275E-1   9.691554965189049E1  -6.079438520218227E1  -7.889286048766104E1  -6.214213229677284E1   2.187920449176616E1  -6.533444277479612E-1   9.641108298493271E1  
 2.067500000000000E9    -4.231013900444749E-1   9.588518127072462E1  -5.560875100646347E1   1.695314564572797E2  -5.819606364396391E1   2.284857121231716E1  -7.017352090545425E-1   9.618008245619052E1  
 2.073125000000000E9    -6.071728577364431E-1   9.529529773206485E1  -5.171680655371740E1  -3.596254975297159E1  -7.503422354076228E1   8.203401109662052E1  -6.281920815654950E-1   9.584528911861206E1  
 2.078750000000000E9    -5.521438070306441E-1   9.478491811268846E1  -5.845283904018767E1  -1.213985004302961E2  -7.131657540119586E1   4.062521314408713E1  -6.990448559961042E-1   9.525291300125086E1  
 2.084375000000000E9    -5.756294687777785E-1   9.366648071658688E1  -6.139917533179263E1   2.309558418296896E1  -5.826054453480129E1   2.089134656052803E1  -7.223486113006906E-1   9.383896829858176E1  
 2.090000000000000E9    -5.209994150955306E-1   9.292741618248981E1  -5.757589078932564E1   8.313077400058378E1  -5.616011816879472E1   5.395276502554013E1  -7.078751515252539E-1   9.390736614473427E1  
 2.095625000000000E9    -5.494832338210477E-1   9.194304609393375E1  -5.758419587921167E1   8.711796755220483E1  -5.576155383091704E1   3.131018976290920E1  -6.646705717226364E-1   9.271446395122351E1  
 2.101250000000000E9    -5.333194134369897E-1   9.163983012148113E1  -6.179303056493203E1   1.380439016439473E2  -6.463157890164558E1   1.556915489783035E2  -6.107874869907457E-1   9.170312899884237E1  
 2.106875000000000E9    -6.134239453043406E-1   9.093876018591293E1  -6.630228880895184E1  -1.430626957122788E2  -5.464598572446605E1   1.474853926052167E2  -7.212779741007500E-1   9.146214657872031E1  
 2.112500000000000E9    -6.100057923843950E-1   9.031320745806769E1  -5.374492348735117E1  -9.735842038735555E-3  -6.699798810287312E1  -8.433045005453563E-1  -6.554923272601398E-1   9.104427002651380E1  
 2.118125000000000E9    -6.530167313345197E-1   8.908100998160616E1  -6.115186887526401E1  -3.044490715876049E1  -5.852451515342306E1  -1.124960891457140E2  -7.148646511420640E-1   8.959131204856598E1  
 2.123750000000000E9    -5.246242593522668E-1   8.901739886099389E1  -5.918103384599775E1  -1.246748895395569E2  -5.456513246439096E1  -1.766611683935431E2  -6.953007747284732E-1   8.991673520476405E1  
 2.129375000000000E9    -5.595193437779154E-1   8.836954764331608E1  -5.981594177656965E1   3.254641883721165E1  -7.331504523376995E1  -1.428048220332711E1  -7.550132324316184E-1   8.868595195346325E1  
 2.135000000000000E9    -4.922037858569065E-1   8.711532348497872E1  -6.001995111497569E1  -5.779922827212311  -6.342123268432960E1  -1.103247019957635E2  -8.217408760769432E-1   8.838269042661402E1  
 2.140625000000000E9    -4.807898833838610E-1   8.656391492697549E1  -5.959293810742729E1  -1.318452554662892E2  -7.324825497930348E1   1.257300922825842E2  -6.872260493589061E-1   8.696472490354543E1  
 2.146250000000000E9    -5.686205750321643E-1   8.585158764446524E1  -6.298689070735775E1   1.145924120222269E2  -5.759237344392901E1  -6.527967581576286E1  -6.912646376615429E-1   8.686202024015650E1  
 2.151875000000000E9    -5.453132223967385E-1   8.574108572979692E1  -6.638408098880043E1  -1.770070189431133E2  -5.952883979170969E1  -5.831804537148522E1  -6.627660548569218E-1   8.635147363289839E1  
 2.157500000000000E9    -6.008101942082534E-1   8.509243411839407E1  -6.114188765041030E1   6.494928274532710  -6.099536044099116E1   8.855669528604381E1  -7.276269944960454E-1   8.533948547496669E1  
 2.163125000000000E9    -5.808217234526245E-1   8.433749776338365E1  -5.737405236657828E1   1.691717918839899E1  -6.261761045042869E1   1.152971371983457E2  -6.916012453212507E-1   8.418589554542844E1  
 2.168750000000000E9    -5.225916433794432E-1   8.326546539011459E1  -6.608746700154981E1   3.455732611026424E1  -5.677777469062438E1   4.340802233678134E1  -8.100621093134801E-1   8.397907975900941E1  
 2.174375000000000E9    -4.885366386866156E-1   8.255898700832245E1  -5.686340531552553E1   2.156557839265232E1  -6.195779786647500E1  -6.039114457679505  -8.315282705899233E-1   8.332089787971385E1  
 2.180000000000000E9    -5.432172059290248E-1   8.162958469804950E1  -6.004308214142056E1   3.020917002948368E1  -6.273045958940484E1  -8.574091752484199E1  -7.967424561172832E-1   8.255780355827889E1  
 2.185625000000000E9    -4.791993154971432E-1   7.992048521089350E1  -5.858247378337021E1  -4.696344018935093E1  -5.869909430175062E1   4.202512017706043E1  -7.764399055981557E-1   8.154012212816794E1  
 2.191250000000000E9    -5.611127008083264E-1   8.054165451724606E1  -6.095437110261684E1   8.966426404261868E1  -6.170991793382404E1   5.509264443231771E1  -7.349595054550574E-1   8.089403490392947E1  
 2.196875000000000E9    -5.451900118245702E-1   7.981720150525842E1  -8.024478309287495E1   1.511324565794956E1  -5.847903489228512E1   1.979459349242427E1  -7.573220868409768E-1   8.052042396451680E1  
 2.202500000000000E9    -5.357528587265925E-1   7.952477159844344E1  -5.583518502441289E1   1.518824179058204E2  -6.282807666206234E1   1.540386572798581E2  -7.303192982568177E-1   7.930133908501502E1  
 2.208125000000000E9    -5.638512418567618E-1   7.790508104958980E1  -5.442430273705197E1  -4.746074370519921E1  -6.676312818788179E1   1.278548517280026E2  -8.511335985766992E-1   7.912068768308744E1  
 2.213750000000000E9    -6.181014847210840E-1   7.783549577181815E1  -5.973127073703439E1  -5.401682121717637E1  -5.899222415620727E1   8.819147505791950E1  -8.263349184671616E-1   7.823317175575272E1  
 2.219375000000000E9    -5.344119246435504E-1   7.721497031123997E1  -6.591529721272234E1   1.587754397633889E2  -5.904009180724852E1   2.921881380268509E1  -8.081573832726325E-1   7.709323462972833E1  
 2.225000000000000E9    -6.218999416196711E-1   7.634587871137227E1  -5.388434705688508E1  -1.013841915704291E2  -6.266098371762263E1   6.406980457200955E1  -8.255025561503054E-1   7.625680999395523E1  
 2.230625000000000E9    -4.849262246302339E-1   7.517300064877109E1  -5.984916994927329E1  -9.718750744023245E1  -5.585528852484973E1   1.112848570724291E2  -9.010267732654708E-1   7.600953389997220E1  
 2.236250000000000E9    -6.122581194036962E-1   7.456466284736179E1  -6.368862562559753E1   1.265045268740356E2  -6.007332187545475E1   1.000733341837197E2  -8.452546117429982E-1   7.549808211426020E1  
 2.241875000000000E9    -5.845640219533260E-1   7.339037726960989E1  -5.767429561898631E1   9.207420523408478  -5.929994956987719E1   1.304723065437774E2  -8.459278528316945E-1   7.472658452856459E1  
 2.247500000000000E9    -6.241542339403592E-1   7.302172637739091E1  -7.075998785356420E1  -7.776203440275104E1  -7.772991307315127E1   1.447925650056293E2  -8.128467140122787E-1   7.397183380138988E1  
 2.253125000000000E9    -6.281119336478133E-1   7.241704253139791E1  -7.531046040526536E1  -1.272657418878881E2  -6.292048776945586E1   4.569529111123032  -8.109049713705454E-1   7.347869371286788E1  
 2.258750000000000E9    -5.501433590958218E-1   7.151587674024535E1  -6.354797530462086E1   2.612355295433788E1  -5.681301681965121E1  -5.940871996206645E1  -9.242248931793137E-1   7.219167131532603E1  
 2.264375000000000E9    -5.929809879740416E-1   7.059663172838678E1  -6.414845461016661E1  -2.245954657389426E1  -6.497055774794497E1  -6.012932342766668  -8.621520096486858E-1   7.170082114737501E1  
 2.270000000000000E9    -6.107761728238457E-1   6.958099752403230E1  -5.811387202186366E1  -8.540443841582297E1  -6.319257918742243E1  -2.677309837554403E1  -9.380119831795402E-1   7.084676576773687E1  
 2.275625000000000E9    -6.184435335447385E-1   6.927729946001419E1  -5.602684054596670E1   8.645133816262603E1  -5.589112074288246E1  -1.467909444949497E1  -8.630135606558723E-1   7.052158708541258E1  
 2.281250000000000E9    -6.533386987620785E-1   6.792500576207893E1  -7.246167056082247E1  -1.339102821386607E1  -5.731750560705937E1   1.017864438990232E1  -9.255417065678546E-1   7.003749057100580E1  
 2.286875000000000E9    -6.107008141990080E-1   6.770893251630508E1  -6.132287805621652E1  -2.465227398817547E1  -5.972286409132319E1   4.291009803751326E1  -9.292326006499624E-1   6.904021548780585E1  
 2.292500000000000E9    -5.365445655907772E-1   6.727252480703291E1  -5.811857378149792E1   6.794756856451491E1  -5.480908236109064E1   9.478445522633220E1  -9.665116703548405E-1   6.872137393819604E1  
 2.298125000000000E9    -6.438667025712573E-1   6.616554152878828E1  -6.683943168668121E1  -3.087576877261481E1  -5.995101211930459E1   4.126994209403421E1  -1.075809856515290   6.739144428883002E1  
 2.303750000000000E9    -6.295708214541801E-1   6.583993863675008E1  -5.819774544687571E1   3.400226809789793E1  -6.279209306504769E1   1.496253895159262E2  -1.056639405755701   6.653017313144260E1  
 2.309375000000000E9    -7.242915594277907E-1   6.500713925255417E1  -5.845035781766382E1   7.018750586288800E1  -5.805979768582593E1  -6.442287275032606E1  -1.006101589129150   6.603788439639862E1  
 2.315000000000000E9    -5.656888509498422E-1   6.330707744621167E1  -6.017505597521006E1   1.391940660458807E2  -7.948895904185903E1  -5.544369011395380E1  -9.835926748736784E-1   6.546364390215321E1  
 2.320625000000000E9    -5.857775056033467E-1   6.346145116463689E1  -5.593768166487685E1  -1.178182902370691E2  -5.981816207618807E1   6.405832720509106E1  -9.568795743256636E-1   6.421448232699483E1  
 2.326250000000000E9    -6.308847432027523E-1   6.262190945510892E1  -5.898251208336598E1  -7.064856783498341E1  -6.687697138308697E1   1.097558919795473E2  -9.995520553049548E-1   6.414127767968031E1  
 2.331875000000000E9    -6.238261264950598E-1   6.209537717007540E1  -5.780233638092793E1   2.170210947783617E1  -6.244800555454201E1   5.187245248791135E1  -1.015226573788947   6.427488934116241E1  
 2.337500000000000E9    -6.055888608594431E-1   6.098923272883996E1  -5.848168991780752E1  -9.179411216526063E1  -6.865391787290993E1   1.162544705500555E2  -1.024001554783579   6.253879546349545E1  
 2.343125000000000E9    -6.899209362160563E-1   6.009960528514039E1  -7.135661844761938E1   1.776310857518437E2  -6.026858465089354E1  -4.777770354013873E1  -1.051554227401856   6.222108235597818E1  
 2.348750000000000E9    -6.373430954808281E-1   5.913275634191422E1  -6.523887287913074E1  -1.774975423981347E2  -6.575087715384765E1  -1.296332295060828E2  -1.065353881735626   6.146275040275324E1  
 2.354375000000000E9    -6.624279023389997E-1   5.873984932218233E1  -5.880004785887417E1  -1.026158621455338E2  -6.023130065415145E1   3.412822493278188E1  -1.067308397036966   6.062041390315996E1  
 2.360000000000000E9    -6.289863787390231E-1   5.809104697451722E1  -6.205640562711100E1  -1.409360790084583E2  -5.885313189386999E1  -4.542417415661986E1  -1.054919862388560   6.013262378531739E1  
 2.365625000000000E9    -6.506124907436964E-1   5.680847363987405E1  -6.084872541731522E1  -2.104092798295632E1  -5.651753231677109E1  -1.664961822585988E2  -1.131426264856370   5.921778726565256E1  
 2.371250000000000E9    -6.949907398392133E-1   5.667830951455850E1  -6.211583573125129E1  -1.788065556421266E2  -5.858590978052722E1   7.068709555596718  -1.114950688638486   5.856662627270156E1  
 2.376875000000000E9    -7.572380078555134E-1   5.579737372225610E1  -8.840705279019967E1   9.965174012355716E1  -7.025835210334896E1   4.409425879182614E1  -1.203879450101773   5.834593153246171E1  
 2.382500000000000E9    -7.191113388326649E-1   5.477835782708075E1  -5.988779045244770E1  -1.717665508713948E2  -7.106180150404840E1  -2.939393649436164E1  -1.182868446569363   5.773654902249065E1  
 2.388125000000000E9    -7.696982699892175E-1   5.393582502403122E1  -6.329048012181694E1   8.654835875343373E1  -6.721306594759815E1  -3.246217216597803E1  -1.150265134001282   5.675072901570128E1  
 2.393750000000000E9    -7.760694076983159E-1   5.322610237395649E1  -5.857676806731330E1  -1.465515952606086E2  -7.185493893606818E1  -1.654124988582345E2  -1.189926170784010   5.612347565603012E1  
 2.399375000000000E9    -6.398207976530962E-1   5.224366154712870E1  -6.185496942598699E1   8.457145293012975E1  -6.487252727186414E1  -1.252765004796887E2  -1.141209504227742   5.525318739972224E1  
 2.405000000000000E9    -6.629524229861833E-1   5.155467882184494E1  -6.005177781624651E1  -6.431172149158441  -6.800258017545143E1   1.367223548922741E2  -1.178247130020524   5.448762794797127E1  
 2.410625000000000E9    -6.731616977598212E-1   5.083855846950880E1  -5.947330797109217E1  -1.095223995996612E2  -7.219706492903528E1  -8.085362252475204E1  -1.195045666692679   5.310354687945834E1  
 2.416250000000000E9    -7.847753232059810E-1   4.952235687658757E1  -5.643474764992575E1  -2.498101393338384  -6.283671339437215E1   9.032360999787102E1  -1.138621495865605   5.287633625970407E1  
 2.421875000000000E9    -7.051853413677657E-1   4.916090786646983E1  -5.569588088051153E1  -7.661452625915503E1  -6.332924035576230E1  -5.368835973729792E1  -1.301707160605520   5.232135115709151E1  
 2.427500000000000E9    -8.097675947784958E-1   4.844821520865876E1  -6.797797677086034E1  -1.812289481875558E1  -5.514313619727420E1  -8.360662879112773E1  -1.330888602988824   5.120408589557344E1  
 2.433125000000000E9    -8.001298302359784E-1   4.760699001990502E1  -6.209080575540047E1  -1.088512902807700E2  -7.180037673924083E1   1.743029262454550E2  -1.271221476207186   5.070661133716952E1  
 2.438750000000000E9    -7.591158221615665E-1   4.688295020744837E1  -5.819893471723305E1   2.584075140021955E1  -5.905358716884670E1  -2.055226966177290E1  -1.321233595464451   5.008751058594458E1  
 2.444375000000000E9    -7.974943322686684E-1   4.638383326702371E1  -6.153169271726195E1   6.942119184491770E1  -6.702338869998275E1   8.527549359048258E1  -1.356327071163313   4.936677433564822E1  
 2.450000000000000E9    -7.415644630149764E-1   4.499278574032520E1  -6.638400385536437E1   5.692562096847706E1  -5.561067623941732E1  -1.456143415124647E2  -1.300241529385452   4.851633241924388E1  
 2.455625000000000E9    -8.155407328960403E-1   4.437570297972655E1  -6.958315629060617E1   1.152811394492110E2  -5.695588285512345E1   8.706092251855020E1  -1.349945982722705   4.755717797178992E1  
 2.461250000000000E9    -8.377017530152185E-1   4.304116281382640E1  -7.765136167391093E1   1.721584619303492E2  -6.604999588268287E1  -1.236897993012942E2  -1.450517394954156   4.726324634335624E1  
 2.466875000000000E9    -8.678805764807985E-1   4.277390842154964E1  -5.731754399191465E1  -3.589823590008487E1  -6.118820597699028E1   1.193033602959740E2  -1.386369332922491   4.604486751219667E1  
 2.472500000000000E9    -8.093846635104182E-1   4.174706629640631E1  -5.953342336495472E1   1.011933522207774E2  -6.294325497691805E1   7.478004603917485E1  -1.421204358792427   4.550595281747520E1  
 2.478125000000000E9    -7.756432651509868E-1   4.104132704337821E1  -5.434777225967009E1   5.089512553631669E1  -6.611457426726470E1  -3.772540690253958E1  -1.474977710967022   4.503230952618052E1  
 2.483750000000000E9    -7.970269832756427E-1   4.026125025218043E1  -5.414598824119209E1  -3.401211857423740E1  -6.293000767894912E1   5.888556909929434E1  -1.478686391271864   4.451924433860241E1  
 2.489375000000000E9    -7.863495548819141E-1   3.894306316234063E1  -5.852118701829023E1   1.235886380692757E2  -6.024186940197651E1   2.849002384503883E1  -1.424239032639443   4.344929462425217E1  
 2.495000000000000E9    -8.494834729144004E-1   3.804346664647326E1  -5.800844548146984E1   3.832055835618001  -6.365264305687826E1  -1.743245754910221E2  -1.491535516820669   4.268984708771780E1  
 2.500625000000000E9    -8.869439657562465E-1   3.754429474014614E1  -6.355602022529269E1  -2.242706454872974E1  -5.946468549369554E1   1.553848581769417E2  -1.457324174208326   4.267155344998412E1  
 2.506250000000000E9    -8.764019762471905E-1   3.657679606074722E1  -6.021328375192633E1  -2.955057484897969  -6.757988243081763E1  -2.347047513377679E1  -1.457358751925610   4.097408681926886E1  
 2.511875000000000E9    -9.191322943868657E-1   3.622235831271587E1  -6.339449938840437E1  -1.727433034858977E2  -6.546262427088625E1  -9.652030088732363E1  -1.534822296728397   4.085040518321868E1  
 2.517500000000000E9    -8.685921139589066E-1   3.483972922207189E1  -5.716942047983532E1   2.825778001756852E1  -6.414590899866896E1  -1.652646453663430E1  -1.500199329498307   4.018012457278950E1  
 2.523125000000000E9    -8.819522886995466E-1   3.406961666799929E1  -5.939314832147667E1   6.029409891236241E1  -6.806998292467029E1  -1.144055389887319E2  -1.524936601884737   3.876281906045968E1  
 2.528750000000000E9    -8.468418316058572E-1   3.330077324351446E1  -6.214320296845840E1   6.381919144640890E1  -6.522666242125102E1   8.621698496559760E1  -1.611372763561849   3.887649822780629E1  
 2.534375000000000E9    -9.017368204480177E-1   3.212422098736014E1  -6.810164219244697E1  -3.838289292973256E1  -6.295804847216484E1   1.609439654597988E2  -1.554206000472989   3.781146494816176E1  
 2.540000000000000E9    -9.737383420700868E-1   3.135269581388095E1  -6.781503219420928E1   7.965765578840539E1  -6.596647944913669E1   8.375691531717628E1  -1.649894952731233   3.708182820527394E1  
 2.545625000000000E9    -1.025842343403602   3.040676116898254E1  -7.161252851089989E1   1.307506906153072E2  -6.168034114565042E1  -7.275849042236564E1  -1.652233917376730   3.636715272114173E1  
