#  HZ   S   DB   R     50.00 
! Rohde & Schwarz ZVA40 4Ports - Version 3.60 - 1145.1110k42 SN: 100347
! Date: 2016-12-01 06:21:32
! Measurements: S11 S21 S12 S22 
! 
 1.000000000000000E8    -8.364428183976352E-1  -1.511865964239428E1  -4.490380553611293E1  -1.137295779836928E2  -3.194473490728180E1  -7.440342849466386E1   4.325570246656326   2.378441860772131E1  
 1.124375000000000E8    -2.967521509468283E-1  -1.857903983376380E1  -4.268604469573422E1   1.175119218257896E2  -3.629034076435700E1   4.102135566868948E1  -1.249042959198563E1  -1.959582144778481  
 1.248750000000000E8     6.242534483751702E-2  -1.769720983031905E1  -4.053703733423642E1  -1.250203124265302E2  -5.074205524202499E1  -1.341899860338712E2   4.538911623398153  -1.014600560810642E2  
 1.373125000000000E8    -5.700822280008215E-1  -2.357112795368643E1  -4.103528236231836E1  -3.589400783829916E1  -3.982811249093446E1  -1.134654224542137E1  -5.072643118100477   6.795308446021194E1  
 1.497500000000000E8    -2.514811476084478E-1  -2.261750610352998E1  -5.003499978809128E1  -1.536203182746270E2  -4.652798555191664E1   7.514273383888744E1   8.162337565126696E-1  -9.023359183732282E1  
 1.621875000000000E8     1.070975487779274E-1  -2.532925387833044E1  -4.118635775560479E1  -5.075721027456502E1  -3.706065037632224E1   1.662190630019182E2  -2.173196230547037   4.626289435351617E1  
 1.746250000000000E8    -3.875133906345429E-1  -2.742477046446184E1  -3.984784966649909E1   1.744702846849169E2  -4.694771059922775E1   8.782972483943340E1  -2.353097366936753   8.330824482904032E1  
 1.870625000000000E8    -2.094959110037550E-1  -2.802977602497808E1  -4.068513202155820E1   1.483398216285532E2  -3.698799641657105E1  -1.152149712107583E2  -2.250000088180677E1   1.025833423291306E2  
 1.995000000000000E8    -1.905276168107872E-1  -3.143764871794093E1  -4.226227018068980E1  -9.687903526852466E1  -5.475979216847476E1  -1.021813469447160E2  -9.502740144176789  -7.591032479967571E1  
 2.119375000000000E8    -3.287788752909992E-1  -3.295115585689123E1  -4.234338850141027E1  -1.219814392787102E2  -5.317743052306804E1   1.289315800031180E1   3.258335714486895E-1   1.465445885598639E2  
 2.243750000000000E8    -1.704657930078103E-1  -3.563410735350507E1  -4.172340772477661E1  -1.761653580908705E2  -4.812279101869440E1  -3.632051898072986E1  -9.433601128574228E-1  -6.822324160541639E1  
 2.368125000000000E8    -2.462016705632869E-1  -3.560913250481111E1  -4.974770959161609E1   4.114890764588171  -5.687771115667234E1   7.162779422702266E1  -6.737484129350103   3.153743214798530E1  
 2.492500000000000E8     2.681514930054650E-2  -3.786262189538550E1  -4.740784354289050E1  -1.598315536470089E2  -3.338664648206922E1  -1.056582600056970E2  -6.805250596524050E-1  -2.380046746113627E1  
 2.616875000000000E8     6.188567715323045E-2  -3.777863377495398E1  -5.705195118861259E1  -9.969095585229809E1  -5.840843946917163E1  -1.476998072122822E2   1.369871821222713E1   5.699901352660601E1  
 2.741250000000000E8    -1.542448412906774E-1  -4.034718880865755E1  -4.958491322680564E1   1.759673194216845E2  -4.449363097969330E1  -5.701549265850015E1  -2.660406898376804   1.065261535469735E2  
 2.865625000000000E8    -2.796517209478169E-1  -4.548262303711088E1  -4.040497135271639E1  -7.596591657630997E1  -3.667272190144542E1  -1.430016914400217E2   5.036016463988814   6.328499115229170E1  
 2.990000000000000E8    -8.779644529133852E-2  -4.530174162464266E1  -5.231639255418357E1   9.463422461532544E1  -5.554887517672147E1   9.981508061091651E1  -1.340724910086528E1   1.288620864086207E2  
 3.114375000000000E8     5.782443519869204E-2  -4.821840060871315E1  -4.737579088270845E1  -1.185880025770984E2  -4.357661138199341E1   1.572173912329175E2  -2.942065009338240  -7.898723151441741  
 3.238750000000000E8    -7.298208126435472E-2  -5.034932602979659E1  -5.135854875205655E1  -8.572827548585816E1  -6.424963245545554E1   4.922303215553315E1  -6.121080317724215  -6.399747401356819E1  
 3.363125000000000E8    -5.835741527413561E-2  -5.098936294816386E1  -4.979057259083059E1  -3.873916164623763E1  -4.130372736083081E1  -7.219570199890278E1   4.473975282156153E-1   1.517401664266468E1  
 3.487500000000000E8    -1.816484596504698E-1  -5.348521996770791E1  -4.879773938097849E1  -3.406023162619846E1  -3.378259182587600E1  -8.995062676879971E1  -2.595855920352476E1   7.701299493145098E1  
 3.611875000000000E8    -2.705890421765007E-1  -5.404582011138670E1  -5.519257932836645E1  -1.239682128534070E2  -3.647035763498429E1   1.548830989461425E2  -6.201651525798231  -8.802157856985299E1  
 3.736250000000000E8     2.225707813370777E-3  -5.736158555994609E1  -5.236321314935584E1  -1.071196725706981E2  -5.110824868969410E1   5.019897255547192  -3.506095244574807   1.557471281323123E2  
 3.860625000000000E8    -4.236620669750853E-2  -6.001731520136700E1  -4.701698352034421E1  -8.055859747807496  -4.367538852274905E1   1.282937941782398E2  -1.253397377700396E1  -1.310520928455503E2  
 3.985000000000000E8     2.944163732710720E-2  -6.019962869205697E1  -4.751364941874071E1  -5.257312143293392E1  -6.058798219866562E1   6.865381535126855E1  -1.097956020014295   7.870346834801273  
 4.109375000000000E8    -3.281694259119752E-2  -6.343879986458241E1  -4.787538748302654E1  -5.330469414696319E1  -5.837916124663689E1  -1.280883388617782E2  -7.520930618755925   8.541088940921388E1  
 4.233750000000000E8    -1.537822040759399E-1  -6.498671146424584E1  -5.451135437575626E1  -1.286754288019609E2  -7.071231849938512E1   1.123388622329455E1   7.051743093240991  -8.151561343115316E1  
 4.358125000000000E8     8.135629264456602E-2  -6.626775245991004E1  -5.313918983031009E1  -6.067738331809927E1  -4.123823886331454E1   3.862805203119915E1   1.027382436937441  -1.790239958239100E2  
 4.482500000000000E8    -1.832711847318831E-1  -6.799726435802764E1  -4.477961834672816E1  -6.873516099171228  -3.519324888065377E1  -1.628983754674489E2  -2.882716033699210   1.793601031266006E2  
 4.606875000000000E8    -6.239737405516863E-2  -6.882253101300863E1  -4.327881068849213E1   1.205159236992929E2  -3.824765122914628E1   1.355644516528875E2   3.694842878365440E-1  -1.319001839433047E2  
 4.731250000000000E8    -2.479043610059820E-1  -7.129124073588062E1  -4.821083019467935E1   4.308658151520304  -5.262372520355746E1  -1.214506736271824E2   2.903564607926326  -1.214712805471287E2  
 4.855625000000000E8    -5.491133986127669E-2  -7.340741186059772E1  -6.676011919279682E1   2.298053932952883E1  -4.397045597310181E1  -1.276400388222337E2   2.194898830603630   1.691620684614793E2  
 4.980000000000000E8     9.594979579151367E-2  -7.566170525894867E1  -5.271696922793866E1   1.166335406104510E2  -4.879063231512388E1  -3.995323939055508E1  -3.494384223459617  -1.197955698626847E2  
 5.104375000000000E8    -6.912703832005898E-2  -7.604447722645041E1  -5.003831763320986E1  -5.846912275251856E1  -7.369529490401524E1   1.406315532243589E2  -2.556428729676128E1  -3.640759783236924E1  
 5.228750000000000E8    -2.401047640642871E-2  -7.952558526606686E1  -4.695598562902828E1   1.751382733794631E2  -5.283203803695211E1   6.895540765776919E1   7.000046238911512  -5.646268450353990E1  
 5.353125000000000E8    -1.806533598077877E-1  -8.106452853752001E1  -5.316860508234817E1  -6.521255054053127E1  -4.978966993001902E1   1.405992852460379E2  -9.533284806550530  -1.555543846487884E2  
 5.477500000000000E8     2.654403638940233E-2  -8.335310636454449E1  -5.336337931241008E1   9.832787838185720E1  -5.408643945687201E1  -1.051833598084116E1   1.039166062396550  -1.157154335906313E2  
 5.601875000000000E8    -1.624475558168299E-1  -8.433987037968566E1  -4.644088742725999E1  -4.364472899822903E1  -4.113152653567931E1  -5.762721705156532E1   7.966372809853374  -5.612363870892902E1  
 5.726250000000000E8    -1.750848967078576E-1  -8.558816774591421E1  -5.259892171732890E1   1.327383047812879E2  -4.773665018806251E1  -1.483240455210948E2   3.370377244265619  -1.143906563020687E2  
 5.850625000000000E8    -2.456428428031278E-1  -8.854890597127493E1  -5.319644120553326E1   3.889310472913406E1  -7.453210734412549E1   5.827458984696252E1   6.006962747558649E-1  -1.486229248349229E2  
 5.975000000000000E8    -2.225897394022752E-1  -9.012889054474275E1  -4.836544834264738E1   7.454760832630736E1  -5.558776684586513E1   1.286390141539793E2  -6.446389328515494E-1  -9.524480571015327E1  
 6.099375000000000E8    -2.113391400170712E-1  -9.178824361224717E1  -4.346935812017493E1   3.289331657384361E1  -5.881435777943609E1   1.073579941167703E2  -2.040704645073934  -2.569052533101067E1  
 6.223750000000000E8    -2.333533581374616E-1  -9.419943668150042E1  -4.569001324920924E1  -1.484430846542354E2  -5.028653134896162E1  -1.224223366013908E2   2.455170991102546  -1.294138811934828E2  
 6.348125000000000E8    -1.339969393730171E-1  -9.513718290827367E1  -5.700066915098732E1  -1.253865455627898E2  -3.474688208432168E1  -1.312516454446194E2  -7.731629192341688E-2  -9.619551965280618E1  
 6.472500000000000E8    -1.320012786886587E-1  -9.801887799918862E1  -5.711339570639098E1  -4.974925648964755E1  -7.393544185484346E1   1.449209918177116E1  -3.669368727627048  -1.172762186592483E2  
 6.596875000000000E8    -1.702978520541242E-1  -9.958882477322565E1  -5.802653342977524E1  -1.605160898855864E2  -4.902049793279279E1   2.127151989307934E1  -1.692732030018991  -1.256270513052281E2  
 6.721250000000000E8    -1.761069633333244E-1  -1.001510228033129E2  -5.949621646227625E1  -2.326650237487817E1  -5.062867778276500E1  -4.547118143309206E1  -3.953071023585437  -9.363992884333175E1  
 6.845625000000000E8    -1.459988411353500E-1  -1.035356568420305E2  -5.602199877948584E1  -5.276736722691280E1  -4.806092605595025E1  -1.219431508899287E2  -3.368620228074556  -1.117411942897737E2  
 6.970000000000000E8    -2.354869134079981E-1  -1.041772728618965E2  -5.103135559608612E1   1.464555731652785E2  -5.809475588109050E1   1.062767655333305E2  -6.225637449681394  -7.706471953143975E1  
 7.094375000000000E8    -1.944384643030752E-1  -1.066170295741021E2  -5.405196388445603E1   1.146465850977496E2  -6.249572147037355E1  -1.236121969863636E2  -6.229670337277432E-1  -1.087126995250785E2  
 7.218750000000000E8    -2.503785974813469E-1  -1.082560603646454E2  -5.502647946086145E1  -3.583081865777917E1  -5.111042515765405E1  -1.142399746805757E2   4.295704042891374  -1.014591583129521E2  
 7.343125000000000E8    -1.371011226645902E-1  -1.107040579751973E2  -5.183973943338431E1  -6.970171865193290  -5.987846107842560E1  -8.832374120079676E1  -5.174225069218906E-1  -8.238151144787642E1  
 7.467500000000000E8    -1.892518637502341E-1  -1.118308436245008E2  -5.743567422154489E1   8.938538098360257E1  -5.372847472841462E1   1.577391169752839E2  -2.180211519687217  -1.659737616979829E2  
 7.591875000000000E8    -1.660024347438777E-1  -1.131858963573759E2  -6.179191313500500E1   5.127343052236733E1  -6.147959955159669E1   1.749908618294877E2  -2.635261039998063  -1.091711985793434E2  
 7.716250000000000E8    -2.274307576307819E-1  -1.147080099665979E2  -5.230280402993066E1   7.021512810615432  -5.301134124280421E1   1.246299128491183E2   3.625419770778560  -1.176618839242867E2  
 7.840625000000000E8    -2.775805494490395E-1  -1.172176763237037E2  -6.425639405839567E1   2.890910455550021E1  -5.088173315739498E1   8.637505846774504E1   3.659508760319264  -9.351380655119553E1  
 7.965000000000000E8    -3.097370163092831E-1  -1.186770354093052E2  -5.637868235626845E1  -8.248940829928722  -5.776111981805336E1   6.180373929682320E1  -6.398891438263907  -1.078278087430947E2  
 8.089375000000000E8    -3.079581459858651E-1  -1.217381478543280E2  -5.520642958471542E1   9.292516572922926  -5.185530662679705E1   1.258099569176211E2   9.217703311770708E-1  -1.185931643250353E2  
 8.213750000000000E8    -2.620427411715855E-1  -1.221605692205315E2  -5.315781850921029E1  -4.081069815328489E1  -5.282923943197691E1  -2.889049311348378E1   6.032603002439639E-1  -1.315868024717226E2  
 8.338125000000000E8    -2.527711195683074E-1  -1.235760124313830E2  -5.008461944090072E1   1.205800467060202E2  -5.157790718253959E1   3.108067892637637E1   4.438385894182094  -1.532750393952897E2  
 8.462500000000000E8    -2.403308446173787E-1  -1.253560355494421E2  -6.284958158803497E1   7.949971441398964E1  -6.204861272983111E1   8.885709439329304E1  -5.311451288356288E-1  -1.368785545487911E2  
 8.586875000000000E8    -1.310834462001755E-1  -1.271664467487669E2  -5.231638382689128E1   1.037246123102229E2  -5.417626132440477E1   8.848852452291227E1  -2.382000635614006  -1.228377171968284E2  
 8.711250000000000E8    -3.253132770831131E-1  -1.295495868786406E2  -4.916378214274202E1   2.851109419004379E1  -5.525025805887571E1   2.518935919223727E1   2.834440852068537E-1  -1.350065023847139E2  
 8.835625000000000E8    -2.047443334725346E-1  -1.305038023550565E2  -6.491701056206080E1  -1.693400367140034E2  -6.206752883605135E1  -1.069719475301584E2  -1.546432272365317  -1.354240108754317E2  
 8.960000000000000E8    -3.383133186321423E-1  -1.326940976607812E2  -4.951828377492527E1   1.373814705227273E2  -5.361995556055006E1   5.858288047223280E-1  -4.316342184007292E-1  -1.743472869456240E2  
 9.084375000000000E8    -2.781251734149481E-1  -1.344756531293180E2  -6.255655225404590E1  -5.836175395975331  -4.735602196739286E1   6.683863573857946E1   4.926919481189358  -1.424246149980041E2  
 9.208750000000000E8    -4.344154001210087E-1  -1.357353827812882E2  -5.961499892558152E1   1.583692870705193E2  -5.691694219161482E1   1.328731769511229E2  -3.515163579806994  -1.695869043569218E2  
 9.333125000000000E8    -2.966773294765637E-1  -1.384191876638201E2  -5.624536727303937E1   1.753880878806465E2  -6.693752809386663E1   5.649678462448785E1   6.348424596849627E-1  -1.553962190472796E2  
 9.457500000000000E8    -1.994756323464971E-1  -1.397872992082613E2  -5.826707947888670E1   1.276958162269220E2  -4.867779780935275E1  -1.693549098040959E2   7.657461911348394  -1.389834906110065E2  
 9.581875000000000E8    -3.441626389406434E-1  -1.409930668935286E2  -5.975886584125938E1   8.510627194069946E1  -4.512986646070515E1  -1.509680626737372E2  -3.050511315249393  -1.702731228615004E2  
 9.706250000000000E8    -1.404287360787195E-1  -1.432596609538847E2  -5.633577988808212E1  -1.072255320122342E2  -4.247457926662823E1  -7.121981910890578E1   1.022808024123029E1   1.121316346101252E2  
 9.830625000000000E8    -3.577647692511355E-1  -1.447129956205648E2  -5.813870764389523E1  -1.181332764857617E2  -6.293598880700255E1  -1.495817803881352E2   1.292938928412337  -1.198395666220665E2  
 9.955000000000000E8    -3.766251381162169E-1  -1.456977673168177E2  -5.680300117283490E1   1.054535864706256E2  -7.099401512086448E1  -1.592587899932871E2   2.802540582421836E-1  -1.570050076491481E2  
 1.007937500000000E9    -3.587740484778059E-1  -1.476065161090145E2  -5.522077775436652E1  -1.341886478295325E2  -5.882599262193592E1  -1.219507088389497E2   3.581153963211737  -1.410383223229369E2  
 1.020375000000000E9    -2.957091479713768E-1  -1.504397690007580E2  -5.785779851837800E1  -1.460465205146490E2  -5.453004550467416E1   1.083088703928467E1   2.534062030522787  -1.324625301832942E2  
 1.032812500000000E9    -3.195084710929264E-1  -1.517490998394765E2  -5.111457420479685E1  -5.749747690540264E1  -7.063439987965673E1   1.600698810343664E2   4.925438148664586  -1.593154104808364E2  
 1.045250000000000E9    -2.462403903482656E-1  -1.536686786881221E2  -5.140283732804784E1  -1.411224876918325E2  -6.766078534058023E1   9.192288398025848E1   8.150502347321499E-1  -1.439003331350980E2  
 1.057687500000000E9    -2.901605186782634E-1  -1.545413761291461E2  -5.737778232918097E1   9.425382436368255E1  -5.314630875833140E1   1.667106796936110E2   5.724941046318586  -1.541417622086199E2  
 1.070125000000000E9    -2.407302329321489E-1  -1.564335888025374E2  -5.552566473751336E1   7.825182641375483E1  -5.466356755119668E1  -5.507748050913661E1   1.085068511080718  -1.524366957236380E2  
 1.082562500000000E9    -1.495084818843509E-1  -1.577815409187372E2  -4.859327918109895E1  -1.304267651764359E2  -4.943565528910447E1  -1.521330249841816E1  -1.167795740320617  -1.505185193413143E2  
 1.095000000000000E9    -3.792425443880311E-1  -1.604276304750798E2  -6.962155133486874E1  -1.071330488915359E2  -5.545154625221787E1  -1.754521022763889E1  -1.759874686510887  -1.287039884305345E2  
 1.107437500000000E9    -4.114348988550744E-1  -1.612338564086854E2  -5.548162096938899E1  -1.460519709336463E2  -5.471498954643896E1   1.657152007497750E1  -1.689527570426010  -1.448981510766380E2  
 1.119875000000000E9    -4.021825821730899E-1  -1.626553255695366E2  -6.331470375979490E1   3.236492387674599E1  -5.887849267922827E1  -1.637037118400730E2   4.614811337934920E-1  -1.701433155879444E2  
 1.132312500000000E9    -3.864147930446613E-1  -1.650987874823777E2  -6.805679897184812E1  -1.086189887861635E2  -5.392129748084446E1  -8.694272607013627E1   1.815090765338361   1.771610240372247E2  
 1.144750000000000E9    -3.530057115638529E-1  -1.662294473857230E2  -6.152167445850473E1  -3.045961725115193E1  -6.172537769096672E1  -1.402482028198151E2   8.590676239252418E-1  -1.372393816449860E2  
 1.157187500000000E9    -3.441951636547161E-1  -1.685189105463473E2  -4.985504068298229E1   1.748507089490707E2  -5.876880373854499E1  -1.584552492695489E2   4.259673550811441E-1  -1.794765101086399E2  
 1.169625000000000E9    -3.163588986178418E-1  -1.696554948790157E2  -6.186165980224386E1   1.551713170973646E2  -4.997896122653710E1   6.671079951761186E1  -5.807709032704186E-1  -1.739544747762024E2  
 1.182062500000000E9    -2.965004381941885E-1  -1.708107297784538E2  -5.190178140480785E1  -1.541270519311788E2  -4.903325102251715E1   4.468024827463159E1  -1.563095008282909  -1.613770534751061E2  
 1.194500000000000E9    -3.936384624172697E-1  -1.729008912623455E2  -6.235980212496656E1   9.445270414701349E1  -6.153185872074555E1   2.188241773841447E1   2.108926232795520  -1.582629209498835E2  
 1.206937500000000E9    -3.560685800573537E-1  -1.749771679743083E2  -5.570939018286227E1   1.351620130411845E2  -7.596926187193091E1   5.939496001314404E1  -1.055723671828965  -1.715482400237037E2  
 1.219375000000000E9    -4.434778907001527E-1  -1.765063002415369E2  -6.438231635756857E1   1.464677213063231E2  -5.198628544114657E1   1.767601057618826E2   2.141182456364307   1.766368101566792E2  
 1.231812500000000E9    -3.665246909649257E-1  -1.784518509688980E2  -5.501832647558076E1  -9.365987022886624E1  -6.158828013321556E1   1.726439243813870E2   9.031931683830977E-1   1.799083072720499E2  
 1.244250000000000E9    -3.868478580086328E-1  -1.797581939427387E2  -6.148619224335629E1   8.342095594486439  -5.047003567769801E1   1.576425717852305E2   3.730177119453593  -1.783079780046909E2  
 1.256687500000000E9    -3.611248844049823E-1   1.781446575723549E2  -5.677412554799307E1  -5.532800675565392E1  -5.493706929826919E1   4.269217256479097E1   3.606859421943212   1.637637966847463E2  
 1.269125000000000E9    -4.317854826605764E-1   1.768347103484776E2  -5.766025720491142E1   1.768685710816533E2  -7.511555765058881E1   4.503301280731250E1  -1.816278522423496E-1  -1.699368497000607E2  
 1.281562500000000E9    -3.969224948911505E-1   1.751095568435868E2  -6.738311958900145E1   1.457825728655192E2  -5.226006379221492E1  -1.253506524668725E2  -6.642118710688391E-1  -1.698529380581233E2  
 1.294000000000000E9    -3.828832616882519E-1   1.737017674332858E2  -5.302375862433173E1   1.469940722098349E2  -5.636637616149557E1  -1.384548993816705E2   1.728318694901821E-2   1.648335657094728E2  
 1.306437500000000E9    -3.364320725304736E-1   1.725319139110422E2  -5.046816949407221E1   1.371868843773070E2  -6.187218559751553E1  -1.265103331455184E1   6.854379482982393E-1   1.635412138568839E2  
